
(none) login: 
(none) login: root
Password: 
~ # cd nand
/nand # ps
  PID USER       VSZ STAT COMMAND
    1 root      2524 S    init       
    2 root         0 SW<  [kthreadd]
    3 root         0 SW<  [ksoftirqd/0]
    4 root         0 SW<  [watchdog/0]
    5 root         0 SW<  [events/0]
    6 root         0 SW<  [khelper]
   60 root         0 SW<  [kblockd/0]
   72 root         0 SW<  [khubd]
   80 root         0 SW<  [kmmcd]
  105 root         0 SW   [pdflush]
  106 root         0 SW   [pdflush]
  107 root         0 SW<  [kswapd0]
  154 root         0 SW<  [aio/0]
  824 root         0 SW<  [scsi_tgtd/0]
  834 root         0 SW<  [mtdblockd]
  899 root         0 SW<  [rpciod/0]
  903 root         0 SW<  [yaffs-bg-1]
  927 root      2528 R    /usr/sbin/telnetd -l /bin/login 
  931 root      1828 S    pure-ftpd (SERVER)          
  974 root      2524 S    init       
  975 root      2528 S    -sh 
  976 root      2528 R    ps 
/nand # vi term.ini
[term]
company=FONDA TECHNOLOGY
site=fondalighting.com
equipment=FONDA-RTU200
ConnectType=3
# 1=GPRS 2=ETHERNET 3=GPRS/SMS
#server=192.168.1.167
server=47.90.74.13
#server=192.168.1.100
#port=8003
port=7073
heartbeat=2
cc_uid=ff90
apn=uninet
apn_reserver=
user=cm
passwd=gprs
starttime=0600
endtime=1800
masterswitch=
netSwitch=1
4telephone=
[term]
company=FONDA TECHNOLOGY
site=fondalighting.com
equipment=FONDA-RTU200
/nand # ./sc
fast oc enable=1
theft enable=1
#Error:Can't Get theft cnt value!!!
theft cnt=3
theft mode=98
light decay enable=0
light decay=0
## sysDevPrmNoUidInit:Can't Get Para!!!
company=FONDA TECHNOLOGY
site=fondalighting.com
equipment=FONDA-RTU200
cc_uid:
000 00 00 00 00 ff 90 
ConnectType=2
server=47.90.74.13
port=7073
apn=uninet
user=cm
passwd=gprs
ctrPhone=13634185086
almPhone1=13634185086
almPhone2=
almPhone3=
almPhone4=
commOutage=0
sunUp:hour=6,min=0
sunDown:hour=18,min=0
days=30
read interval=60
plc realdata read interval=0
ctrl mode=1
lineOffNoRtuAlarm=1
AutoDimMode=0(0:false 1:true)
is06c=0(0:false 1:true)
#Can't Get zigbee wait time value!!!
#Can't Get zigbee interval value!!!
#Can't Get zigbee retry times value!!!
zigbee param wait time=7000ms,each cmd interval=2500ms,retryTimes=3
heartbeat:Times=2,second=60
app_frm Init sizeof aApFrmData=520
app_comm Init sizeof aAppCommData=1944
tcpc connect to 47.90.74.13:7073 ...
socket connect FAILURE s=6
app_plc Init sizeof aApPlcData=15972
app_plc Init sizeof aAppPLCData=15972
MdlBinaryFileLoad:/nand/area.dat SUCCESS
termUID[0][0][7][64][15][e8],g1=201,g2=0,g3=0,num=1
app_gui Init sizeof aApguiData=612,zigbee buf add=0x18dcb0
aAppGuiWrite to stm32
000 fd 00 07 04 e1 07 07 1c   0e 0c be 86 
aAppGuiWrite to stm32
000 fd 01 01 10 14 60 
app_rs485 Init sizeof aAppRs485Data=2724
MdlBinaryFileLoad:/nand/alast.dat SUCCESS
load alarm st success
Dev_gpm Write,baudrate=38400,checkBits=n
000 01 03 b5 a4 00 13 63 e8   
Dev_gpm Read
000 01 03 26 49 50 4d 32 33   30 20 55 41 52 54 2d 4d   
016 45 54 45 52 20 4d 49 4e   49 20 56 32 2e 30 00 00   
032 00 00 00 00 00 00 00 00   00 a6 5a 
读到参数IPM230 UART-METER MINI V2.0
dev of addr=1 is ammeter
Dev_gpm Write,baudrate=9600,checkBits=e
000 02 03 b5 a4 00 13 63 db   
Dev_gpm Write,baudrate=9600,checkBits=e
000 03 03 b5 a4 00 13 62 0a   
Dev_gpm Write,baudrate=9600,checkBits=e
000 04 03 b5 a4 00 13 63 bd   
Dev_gpm Write,baudrate=9600,checkBits=e
000 05 03 b5 a4 00 13 62 6c   
Dev_gpm Write,baudrate=9600,checkBits=e
000 06 03 b5 a4 00 13 62 5f   
Dev_gpm Write,baudrate=9600,checkBits=e
000 07 03 b5 a4 00 13 63 8e   
Dev_gpm Write,baudrate=9600,checkBits=e
000 08 03 b5 a4 00 13 63 71   
Dev_gpm Write,baudrate=9600,checkBits=e
000 09 03 b5 a4 00 13 62 a0   
Dev_gpm Write,baudrate=9600,checkBits=e
000 0a 03 b5 a4 00 13 62 93   
Dev_gpm Write,baudrate=9600,checkBits=e
000 0b 03 b5 a4 00 13 63 42   
Dev_gpm Write,baudrate=9600,checkBits=e
000 0c 03 b5 a4 00 13 62 f5   
Dev_gpm Write,baudrate=9600,checkBits=e
000 0d 03 b5 a4 00 13 63 24   
Dev_gpm Write,baudrate=9600,checkBits=e
000 0e 03 b5 a4 00 13 63 17   
Dev_gpm Write,baudrate=9600,checkBits=e
000 0f 03 b5 a4 00 13 62 c6   
Dev_gpm Write,baudrate=9600,checkBits=e
000 10 03 b5 a4 00 13 60 a9   
Dev_gpm Write,baudrate=9600,checkBits=e
000 11 03 b5 a4 00 13 61 78   
Dev_gpm Write,baudrate=9600,checkBits=e
000 12 03 b5 a4 00 13 61 4b   
Dev_gpm Write,baudrate=9600,checkBits=e
000 13 03 b5 a4 00 13 60 9a   
Dev_gpm Write,baudrate=9600,checkBits=e
000 14 03 b5 a4 00 13 61 2d   
Dev_gpm Write,baudrate=9600,checkBits=e
000 15 03 b5 a4 00 13 60 fc   
Dev_gpm Write,baudrate=9600,checkBits=e
000 16 03 b5 a4 00 13 60 cf   
Dev_gpm Write,baudrate=9600,checkBits=e
000 17 03 b5 a4 00 13 61 1e   
Dev_gpm Write,baudrate=9600,checkBits=e
000 18 03 b5 a4 00 13 61 e1   
Dev_gpm Write,baudrate=9600,checkBits=e
000 19 03 b5 a4 00 13 60 30   
Dev_gpm Write,baudrate=9600,checkBits=e
000 1a 03 b5 a4 00 13 60 03   
Dev_gpm Write,baudrate=9600,checkBits=e
000 1b 03 b5 a4 00 13 61 d2   
Dev_gpm Write,baudrate=9600,checkBits=e
000 1c 03 b5 a4 00 13 60 65   
Dev_gpm Write,baudrate=9600,checkBits=e
000 1d 03 b5 a4 00 13 61 b4   
Dev_gpm Write,baudrate=9600,checkBits=e
000 1e 03 b5 a4 00 13 61 87   
Dev_gpm Write,baudrate=9600,checkBits=e
000 1f 03 b5 a4 00 13 60 56   
gpmLoadRelayOption addr=1,chn=1,option=1,action=41,optime=1501250003,stiltime=0,lastTilUp=0,lastTilDown=0
gpmLoadRelayOption addr=1,chn=2,option=1,action=41,optime=1501250003,stiltime=0,lastTilUp=0,lastTilDown=0
gpmLoadRelayOption addr=1,chn=3,option=1,action=41,optime=1501250003,stiltime=0,lastTilUp=0,lastTilDown=0
gpmLoadRelayOption addr=1,chn=4,option=1,action=41,optime=1501250004,stiltime=0,lastTilUp=0,lastTilDown=0
#gpmLoadUnexpLightSet num++ =1,addr=1,Acurr=-0.900000,Bcurr=-0.900000,Ccurr=-1.000000,protect=0
MdlBinaryFileLoad:/nand/history.dat SUCCESS
historyPrm load successful,save 0 days
000 01 03 00 01 00 0e 95 ce   
000 01 03 00 01 00 0a 94 0d   
000 01 03 00 01 00 07 55 c8   
Dev_sensm_ph Write
000 24 03 00 00 00 10 43 33   
Dev_sensm_ph read failure
Dev_sensm_ph Write
000 24 03 00 00 00 10 43 33   
Dev_sensm_ph read failure
000 20 04 00 00 00 02 77 7a   
Dev_hstl Write
000 23 03 00 04 00 02 83 48   
app_misc Init sizeof aApMiscData=596,timeId=0
LoadOnline i=1,record=1,online=0,offTime=1501250930
MdlBinaryFileLoad:/nand/lightMode.dat SUCCESS
init切换类型=0,num=0,序号0=0,0x0,序号1=0,0x0,序号2=0,0x0,序号3=0,0x0序号4=0,0x0,
MdlBinaryFileLoad:/nand/task.dat SUCCESS
AppMiscRefreshTask Task seicalNum=0,0,Interval=13643,op=31,timeId=1,opMode=31,grp=1,op=1
AppMiscRefreshTask Task seicalNum=0,0,Interval=13643,op=31,timeId=2,opMode=31,grp=1,op=2
AppMiscRefreshTask Task seicalNum=0,0,Interval=13643,op=31,timeId=3,opMode=31,grp=1,op=3
AppMiscRefreshTask Task seicalNum=0,0,Interval=13643,op=31,timeId=4,opMode=31,grp=1,op=4
AppMiscRefreshTask Task seicalNum=0,0,Interval=56843,op=41,timeId=5,opMode=41,grp=1,op=1
AppMiscRefreshTask Task seicalNum=0,0,Interval=56843,op=41,timeId=6,opMode=41,grp=1,op=2
AppMiscRefreshTask Task seicalNum=0,0,Interval=56843,op=41,timeId=7,opMode=41,grp=1,op=3
AppMiscRefreshTask Task seicalNum=0,0,Interval=56843,op=41,timeId=8,opMode=41,grp=1,op=4
AppMiscRefreshTask Task seicalNum=0,0,Interval=38843,op=2,timeId=9,opMode=2,grp=1,op=47
AppMiscRefreshTask Task seicalNum=0,0,Interval=10043,op=2,timeId=10,opMode=2,grp=1,op=47
AppMiscTaskInit load task SUCCESS
appMiscPublicCalcPassInterval:tptDay,tptInterval
appMiscPublicCalcPassInterval:tptDay,tptInterval
appMiscPublicCalcPassInterval:tptDay,tptInterval
appMiscPublicCalcPassInterval:tptDay,tptInterval
appMiscPublicCalcPassInterval:tptDay,tptInterval
appMiscPublicCalcPassInterval:tptDay,tptInterval
appMiscPublicCalcPassInterval:tptDay,tptInterval
appMiscPublicCalcPassInterval:tptDay,tptInterval
@@@@ revert task rst.option=1,rst.action=41,id=4,interval=29557
000 00 00 00 00 00 00 00 05   01 02 01 01 01 11 00 00   
016 00 01 01 1f 0c 05 a0 06   00 01 10 68 00 00 00 00   
032 ff 90 68 f5 04 04 01 01   03 61 16 00 00 00 00 00   
048 00 00 00 00 00 00 00 00   00 00 00 00 00 00 00 00   
064 00 00 00 01 29 01 01 00   00 00 00 00 80 46 68 58   
080 00 00 00 00 68 01 a0 05   05 00 00 00 
有任务,恢复任务,time or Geo
任务关,1,0x1
Revert task do action:68 00 00 00 00 ff 90 68 f5 04 04 01 01 04 62 14

ap frm: do command, aId=6 cId=0x101,p1=0xbedc35c4 p2=16
@@@@ revert task rst.option=1,rst.action=41,id=5,interval=29557
000 00 00 00 00 00 00 00 06   01 02 01 01 01 11 00 00   
016 00 01 01 1f 0c 05 a0 06   00 01 10 68 00 00 00 00   
032 ff 90 68 f5 04 04 01 02   03 62 16 00 00 00 00 00   
048 00 00 00 00 00 00 00 00   00 00 00 00 00 00 00 00   
064 00 00 00 01 29 01 02 00   00 00 00 00 80 46 68 58   
080 00 00 00 00 68 01 a0 05   06 00 00 00 
有任务,恢复任务,time or Geo
任务关,1,0x2
Revert task do action:68 00 00 00 00 ff 90 68 f5 04 04 01 02 04 63 14

ap frm: do command, aId=6 cId=0x101,p1=0xbedc35c4 p2=16
@@@@ revert task rst.option=1,rst.action=41,id=6,interval=29557
000 00 00 00 00 00 00 00 07   01 02 01 01 01 11 00 00   
016 00 01 01 1f 0c 05 a0 06   00 01 10 68 00 00 00 00   
032 ff 90 68 f5 04 04 01 04   03 64 16 00 00 00 00 00   
048 00 00 00 00 00 00 00 00   00 00 00 00 00 00 00 00   
064 00 00 00 01 29 01 03 00   00 00 00 00 80 46 68 58   
080 00 00 00 00 68 01 a0 05   07 00 00 00 
有任务,恢复任务,time or Geo
任务关,1,0x4
Revert task do action:68 00 00 00 00 ff 90 68 f5 04 04 01 04 04 65 14

ap frm: do command, aId=6 cId=0x101,p1=0xbedc35c4 p2=16
@@@@ revert task rst.option=1,rst.action=41,id=7,interval=29557
000 00 00 00 00 00 00 00 08   01 02 01 01 01 11 00 00   
016 00 01 01 1f 0c 05 a0 06   00 01 10 68 00 00 00 00   
032 ff 90 68 f5 04 04 01 08   03 68 16 00 00 00 00 00   
048 00 00 00 00 00 00 00 00   00 00 00 00 00 00 00 00   
064 00 00 00 01 29 01 04 00   00 00 00 00 80 46 68 58   
080 00 00 00 00 68 01 a0 05   08 00 00 00 
有任务,恢复任务,time or Geo
任务关,1,0x8
Revert task do action:68 00 00 00 00 ff 90 68 f5 04 04 01 08 04 69 14

ap frm: do command, aId=6 cId=0x101,p1=0xbedc35c4 p2=16
recv:6800000000ff9068f504040101046214
000 2a 01 64 00 02 06 00 01   29 01 01 04 00 c7 23 
ap frm: do command, aId=2 cId=0x100,p1=0xbd5ff6e8 p2=15
recv:6800000000ff9068f504040102046314
000 2a 01 64 00 02 06 00 01   29 01 02 04 00 c8 23 
ap frm: do command, aId=2 cId=0x100,p1=0xbd5ff6e8 p2=15
recv:6800000000ff9068f504040104046514
000 2a 01 64 00 02 06 00 01   29 01 04 04 00 ca 23 
ap frm: do command, aId=2 cId=0x100,p1=0xbd5ff6e8 p2=15
recv:6800000000ff9068f504040108046914
000 2a 01 64 00 02 06 00 01   29 01 08 04 00 ce 23 
ap frm: do command, aId=2 cId=0x100,p1=0xbd5ff6e8 p2=15
aAppGuiWrite to stm32
000 fd 01 03 11 02 01 d7 b8   
#light online=1,offline=0,all=1,commOutage=0
ap frm: do command, aId=2 cId=0x104,p1=0xbdfffac4 p2=12
重新连接open
tcpc connect to 47.90.74.13:7073 ...
000 2a 01 01 00 01 02 00 02   ff 30 23 
ap frm: do command, aId=6 cId=0x100,p1=0xbd9ff854 p2=11
ap frm: do command, aId=0 cId=0x100,p1=0xbd5ff8f4 p2=107
连接成功
000 2a 01 64 00 01 07 00 03   01 29 01 01 04 00 ca 23   

ap frm: do command, aId=6 cId=0x100,p1=0xbddff658 p2=16
aAppGuiWrite to stm32
000 fd 01 01 10 14 60 
aAppGuiWrite to stm32
000 fd 01 03 11 02 02 d6 f8   
ap frm: do command, aId=0 cId=0x100,p1=0xbd5ff8f4 p2=18
app comm: send=107 
000 68 00 00 00 00 ff 90 68   f0 5f ff 00 00 00 00 00   
016 00 00 00 00 00 00 00 00   00 00 00 00 00 00 00 00   
032 00 00 00 00 00 00 00 00   00 00 00 00 00 00 00 00   
048 00 00 00 00 00 00 00 00   00 00 00 00 00 00 00 00   
064 00 00 00 00 00 00 00 00   00 00 00 00 00 00 00 00   
080 00 00 00 00 00 00 00 00   00 00 00 00 00 00 00 00   
096 00 00 00 00 00 00 00 00   00 ad 16 
app comm: send=18 
000 68 00 00 00 00 ff 90 68   80 06 f5 01 04 01 01 04   
016 e5 16 
send:6800000000ff90688006f50104010104e516
Dev_gpm Write,baudrate=9600,checkBits=e
000 01 03 9c 40 00 3c 6a 5f   
Dev_gpm Read
000 01 03 78 00 00 00 00 00   00 00 00 43 58 fd 88 42   
016 90 a9 06 00 00 00 00 43   58 8f e8 43 58 37 11 43   
032 10 42 54 00 00 00 00 00   00 00 00 00 00 00 00 00   
048 00 00 00 00 00 00 00 42   47 da b9 00 00 00 00 00   
064 00 00 00 00 00 00 00 00   00 00 00 00 00 00 00 00   
080 00 00 00 00 00 00 00 00   00 00 00 00 00 00 00 00   
096 00 00 00 00 00 00 00 00   00 00 00 00 00 00 00 00   
112 00 00 00 00 00 00 00 00   00 00 00 55 c2 
000 2a 01 01 00 01 02 00 02   ff 30 23 
ap frm: do command, aId=6 cId=0x100,p1=0xbd9ff854 p2=11
ap frm: do command, aId=0 cId=0x100,p1=0xbd5ff8f4 p2=107
app comm: send=107 
000 68 00 00 00 00 ff 90 68   f0 5f ff 00 00 00 00 00   
016 00 00 00 00 00 00 00 00   00 00 00 00 00 00 00 00   
032 00 00 00 00 00 00 00 00   00 00 00 00 00 00 00 00   
048 00 00 00 00 00 00 00 00   00 00 00 00 00 00 00 00   
064 00 00 00 00 00 00 00 00   00 00 00 00 00 00 00 00   
080 00 00 00 00 00 00 00 00   00 00 00 00 00 00 00 00   
096 00 00 00 00 00 00 00 00   00 ad 16 
app comm: recv=14,nowtime=1501251157
000 68 00 00 00 00 ff 90 68   80 02 f0 01 d2 16 
ap frm: do command, aId=6 cId=0x101,p1=0x129188 p2=14
000 2a 01 01 00 02 01 00 01   30 23 
ap frm: do command, aId=4 cId=0x100,p1=0xbd5ff6e8 p2=10
000 2a 01 64 00 01 07 00 03   01 29 01 02 04 00 cb 23   

ap frm: do command, aId=6 cId=0x100,p1=0xbddff658 p2=16
aAppGuiWrite to stm32
000 fd 01 01 10 14 60 
aAppGuiWrite to stm32
000 fd 01 03 11 02 04 d4 78   
ap frm: do command, aId=0 cId=0x100,p1=0xbd5ff8f4 p2=18
app comm: send=18 
000 68 00 00 00 00 ff 90 68   80 06 f5 01 04 01 02 04   
016 e6 16 
send:6800000000ff90688006f50104010204e616
Dev_gpm Write,baudrate=9600,checkBits=e
000 01 03 9d 3a 00 08 4b ad   
Dev_gpm Read
000 01 03 10 3f e9 aa 98 e0   9b a4 2b 3f d3 2d 48 c9   
016 be 6e e6 aa 82 
@@@DevGpmReadPower 0.802075 kWh,0.299639 kvarh
000 2a 01 64 00 01 07 00 03   01 29 01 04 04 00 cd 23   

ap frm: do command, aId=6 cId=0x100,p1=0xbddff658 p2=16
aAppGuiWrite to stm32
000 fd 01 01 10 14 60 
aAppGuiWrite to stm32
000 fd 01 03 11 02 08 d1 78   
ap frm: do command, aId=0 cId=0x100,p1=0xbd5ff8f4 p2=18
app comm: recv=14,nowtime=1501251158
000 68 00 00 00 00 ff 90 68   80 02 f0 01 d2 16 
ap frm: do command, aId=6 cId=0x101,p1=0x129188 p2=14
app comm: send=18 
000 68 00 00 00 00 ff 90 68   80 06 f5 01 04 01 04 04   
016 e8 16 
send:6800000000ff90688006f50104010404e816
000 2a 01 01 00 02 01 00 01   30 23 
ap frm: do command, aId=4 cId=0x100,p1=0xbd5ff6e8 p2=10
000 2a 01 64 00 01 07 00 03   01 29 01 08 04 00 d1 23   

ap frm: do command, aId=6 cId=0x100,p1=0xbddff658 p2=16
aAppGuiWrite to stm32
000 fd 01 01 10 14 60 
aAppGuiWrite to stm32
000 68 00 00 00 00 ff 90 68   23 00 82 16 
ap frm: do command, aId=0 cId=0x100,p1=0xbd5ff8f4 p2=18
app comm: send=18 
000 68 00 00 00 00 ff 90 68   80 06 f5 01 04 01 08 04   
016 ec 16 
send:6800000000ff90688006f50104010804ec16
##发送心跳时间:1501251158
apMiscHeardbeat count=0
000 2a 01 02 00 01 02 00 02   ff 31 23 
ap frm: do command, aId=6 cId=0x100,p1=0xbd9ff854 p2=11
update onlineMng set online=1,offTime=0 where record=1;
ap frm: do command, aId=0 cId=0x100,p1=0xbd5ff8f4 p2=13
app comm: send=13 
000 68 00 00 00 00 ff 90 68   f1 01 ff 50 16 
aAppGuiRead from stm32
000 fd 01 04 10 01 00 00 de   92 fd 01 04 11 01 02 00   
016 42 92 fd 01 04 10 01 00   00 de 92 fd 01 04 11 01   
032 02 00 42 92 fd 01 04 10   01 00 00 de 92 fd 01 04   
048 11 01 02 00 42 92 fd 01   04 10 01 00 00 de 92 fd   
064 01 04 11 01 02 00 42 92   fd 01 04 10 01 00 00 de   
080 92 68 00 00 00 00 ff 90   68 23 04 01 78 78 4c c3   
096 16 
000 2a 01 64 00 01 04 00 01   02 01 00 98 23 
ap frm: do command, aId=6 cId=0x100,p1=0xbddff374 p2=13
000 2a 01 64 00 01 07 00 01   01 29 01 08 04 00 cf 23   

ap frm: do command, aId=6 cId=0x100,p1=0xbddff374 p2=16
000 2a 01 64 00 01 04 00 01   02 01 00 98 23 
ap frm: do command, aId=6 cId=0x100,p1=0xbddff374 p2=13
000 2a 01 64 00 01 07 00 01   01 29 01 08 04 00 cf 23   

ap frm: do command, aId=6 cId=0x100,p1=0xbddff374 p2=16
000 2a 01 64 00 01 04 00 01   02 01 00 98 23 
ap frm: do command, aId=6 cId=0x100,p1=0xbddff374 p2=13
000 2a 01 64 00 01 07 00 01   01 29 01 08 04 00 cf 23   

ap frm: do command, aId=6 cId=0x100,p1=0xbddff374 p2=16
000 2a 01 64 00 01 04 00 01   02 01 00 98 23 
ap frm: do command, aId=6 cId=0x100,p1=0xbddff374 p2=13
000 2a 01 64 00 01 07 00 01   01 29 01 08 04 00 cf 23   

ap frm: do command, aId=6 cId=0x100,p1=0xbddff374 p2=16
000 2a 01 64 00 01 04 00 01   02 01 00 98 23 
ap frm: do command, aId=6 cId=0x100,p1=0xbddff374 p2=13
ap frm: do command, aId=0 cId=0x100,p1=0xbd5ff8f4 p2=15
ap frm: do command, aId=0 cId=0x100,p1=0xbd5ff8f4 p2=17
ap frm: do command, aId=0 cId=0x100,p1=0xbd5ff8f4 p2=15
ap frm: do command, aId=0 cId=0x100,p1=0xbd5ff8f4 p2=17
ap frm: do command, aId=0 cId=0x100,p1=0xbd5ff8f4 p2=15
ap frm: do command, aId=0 cId=0x100,p1=0xbd5ff8f4 p2=17
ap frm: do command, aId=0 cId=0x100,p1=0xbd5ff8f4 p2=15
ap frm: do command, aId=0 cId=0x100,p1=0xbd5ff8f4 p2=17
ap frm: do command, aId=0 cId=0x100,p1=0xbd5ff8f4 p2=15
app comm: send=15 
000 68 00 00 00 00 ff 90 68   f5 03 05 01 00 5d 16 
send:6800000000ff9068f5030501005d16
LoadOnline i=1,record=1,online=1,offTime=0
app comm: recv=14,nowtime=1501251158
000 68 00 00 00 00 ff 90 68   80 02 f1 01 d3 16 
ap frm: do command, aId=6 cId=0x101,p1=0x129188 p2=14
app comm: send=17 
000 68 00 00 00 00 ff 90 68   f5 05 04 01 08 00 04 6a   
016 16 
send:6800000000ff9068f50504010800046a16
000 2a 01 02 00 02 01 00 01   31 23 
ap frm: do command, aId=4 cId=0x100,p1=0xbd5ff6e8 p2=10
##心跳回复时间:1501251158,count=0
app comm: send=15 
000 68 00 00 00 00 ff 90 68   f5 03 05 01 00 5d 16 
send:6800000000ff9068f5030501005d16
app comm: send=17 
000 68 00 00 00 00 ff 90 68   f5 05 04 01 08 00 04 6a   
016 16 
send:6800000000ff9068f50504010800046a16
Here is appMiscCallBack
app comm: send=15 
000 68 00 00 00 00 ff 90 68   f5 03 05 01 00 5d 16 
send:6800000000ff9068f5030501005d16
app comm: send=17 
000 68 00 00 00 00 ff 90 68   f5 05 04 01 08 00 04 6a   
016 16 
send:6800000000ff9068f50504010800046a16
app comm: send=15 
000 68 00 00 00 00 ff 90 68   f5 03 05 01 00 5d 16 
send:6800000000ff9068f5030501005d16
app comm: send=17 
000 68 00 00 00 00 ff 90 68   f5 05 04 01 08 00 04 6a   
016 16 
send:6800000000ff9068f50504010800046a16
app comm: send=15 
000 68 00 00 00 00 ff 90 68   f5 03 05 01 00 5d 16 
send:6800000000ff9068f5030501005d16
Here is appMiscCallBack
Here is appMiscCallBack
app comm: recv=19,nowtime=1501251160
000 68 00 00 00 00 ff 90 68   8c 07 11 07 1c 05 0e 0c   
016 2a 6f 16 
ap frm: do command, aId=6 cId=0x101,p1=0x129188 p2=19
000 2a 01 05 00 02 07 00 11   07 1c 05 0e 0c 2a b6 23   

ap frm: do command, aId=4 cId=0x101,p1=0xbd5ff6e8 p2=16
date -s "2017-7-28 14:12:42"
Fri Jul 28 14:12:42 UTC 2017
Here is appMiscCallBack
Fri Jul 28 14:12:42 UTC 2017
Fri Jul 28 14:12:42 2017  0.000000 seconds
Fri Jul 28 14:12:42 2017  0.000000 seconds
000 2a 01 05 00 01 01 00 00   32 23 
ap frm: do command, aId=6 cId=0x100,p1=0xbd9ff57c p2=10
AppMiscRefreshTask Task seicalNum=0,0,Interval=13637,op=31,timeId=1,opMode=31,grp=1,op=1
AppMiscRefreshTask Task seicalNum=0,0,Interval=13637,op=31,timeId=2,opMode=31,grp=1,op=2
AppMiscRefreshTask Task seicalNum=0,0,Interval=13637,op=31,timeId=3,opMode=31,grp=1,op=3
AppMiscRefreshTask Task seicalNum=0,0,Interval=13637,op=31,timeId=4,opMode=31,grp=1,op=4
ap frm: do command, aId=0 cId=0x100,p1=0xbd5ff8f4 p2=14
app comm: send=14 
000 68 00 00 00 00 ff 90 68   80 02 8c 01 6e 16 
AppMiscRefreshTask Task seicalNum=0,0,Interval=56837,op=41,timeId=5,opMode=41,grp=1,op=1
AppMiscRefreshTask Task seicalNum=0,0,Interval=56837,op=41,timeId=6,opMode=41,grp=1,op=2
AppMiscRefreshTask Task seicalNum=0,0,Interval=56837,op=41,timeId=7,opMode=41,grp=1,op=3
AppMiscRefreshTask Task seicalNum=0,0,Interval=56837,op=41,timeId=8,opMode=41,grp=1,op=4
AppMiscRefreshTask Task seicalNum=0,0,Interval=38837,op=2,timeId=9,opMode=2,grp=1,op=47
AppMiscRefreshTask Task seicalNum=0,0,Interval=10037,op=2,timeId=10,opMode=2,grp=1,op=47
appMiscPublicCalcPassInterval:tptDay,tptInterval
appMiscPublicCalcPassInterval:tptDay,tptInterval
appMiscPublicCalcPassInterval:tptDay,tptInterval
appMiscPublicCalcPassInterval:tptDay,tptInterval
appMiscPublicCalcPassInterval:tptDay,tptInterval
appMiscPublicCalcPassInterval:tptDay,tptInterval
appMiscPublicCalcPassInterval:tptDay,tptInterval
appMiscPublicCalcPassInterval:tptDay,tptInterval
@@@@ revert task rst.option=1,rst.action=41,id=4,interval=29563
000 00 00 00 00 00 00 00 05   01 02 01 01 01 11 00 00   
016 00 01 01 1f 0c 05 a0 06   00 01 10 68 00 00 00 00   
032 ff 90 68 f5 04 04 01 01   03 61 16 00 00 00 00 00   
048 00 00 00 00 00 00 00 00   00 00 00 00 00 00 00 00   
064 00 00 00 01 29 01 01 00   00 00 00 00 80 46 68 58   
080 00 00 00 00 68 01 a0 05   05 00 00 00 
有任务,恢复任务,time or Geo
任务关,1,0x1
Revert task do action:68 00 00 00 00 ff 90 68 f5 04 04 01 01 0a 68 14

ap frm: do command, aId=6 cId=0x101,p1=0xbd9fef14 p2=16
@@@@ revert task rst.option=1,rst.action=41,id=5,interval=29563
000 00 00 00 00 00 00 00 06   01 02 01 01 01 11 00 00   
016 00 01 01 1f 0c 05 a0 06   00 01 10 68 00 00 00 00   
032 ff 90 68 f5 04 04 01 02   03 62 16 00 00 00 00 00   
048 00 00 00 00 00 00 00 00   00 00 00 00 00 00 00 00   
064 00 00 00 01 29 01 02 00   00 00 00 00 80 46 68 58   
080 00 00 00 00 68 01 a0 05   06 00 00 00 
有任务,恢复任务,time or Geo
任务关,1,0x2
Revert task do action:68 00 00 00 00 ff 90 68 f5 04 04 01 02 0a 69 14

ap frm: do command, aId=6 cId=0x101,p1=0xbd9fef14 p2=16
@@@@ revert task rst.option=1,rst.action=41,id=6,interval=29563
000 00 00 00 00 00 00 00 07   01 02 01 01 01 11 00 00   
016 00 01 01 1f 0c 05 a0 06   00 01 10 68 00 00 00 00   
032 ff 90 68 f5 04 04 01 04   03 64 16 00 00 00 00 00   
048 00 00 00 00 00 00 00 00   00 00 00 00 00 00 00 00   
064 00 00 00 01 29 01 03 00   00 00 00 00 80 46 68 58   
080 00 00 00 00 68 01 a0 05   07 00 00 00 
有任务,恢复任务,time or Geo
任务关,1,0x4
Revert task do action:68 00 00 00 00 ff 90 68 f5 04 04 01 04 0a 6b 14

recv:6800000000ff9068f5040401010a6814
000 2a 01 64 00 02 06 00 01   29 01 01 0a 00 cd 23 
ap frm: do command, aId=2 cId=0x100,p1=0xbd5ff6e8 p2=15
recv:6800000000ff9068f5040401020a6914
000 2a 01 64 00 02 06 00 01   29 01 02 0a 00 ce 23 
ap frm: do command, aId=2 cId=0x100,p1=0xbd5ff6e8 p2=15
aAppGuiWrite to stm32
000 fd 01 03 11 02 01 d7 b8   
ap frm: do command, aId=6 cId=0x101,p1=0xbd9fef14 p2=16
@@@@ revert task rst.option=1,rst.action=41,id=7,interval=29563
recv:6800000000ff9068f5040401040a6b14
000 2a 01 64 00 02 06 00 01   29 01 04 0a 00 d0 23 
ap frm: do command, aId=2 cId=0x100,p1=0xbd5ff6e8 p2=15
000 00 00 00 00 00 00 00 08   01 02 01 01 01 11 00 00   
016 00 01 01 1f 0c 05 a0 06   00 01 10 68 00 00 00 00   
032 ff 90 68 f5 04 04 01 08   03 68 16 00 00 00 00 00   
048 00 00 00 00 00 00 00 00   00 00 00 00 00 00 00 00   
064 00 00 00 01 29 01 04 00   00 00 00 00 80 46 68 58   
080 00 00 00 00 68 01 a0 05   08 00 00 00 
有任务,恢复任务,time or Geo
任务关,1,0x8
Revert task do action:68 00 00 00 00 ff 90 68 f5 04 04 01 08 0a 6f 14

ap frm: do command, aId=6 cId=0x101,p1=0xbd9fef14 p2=16
recv:6800000000ff9068f5040401080a6f14
000 2a 01 64 00 02 06 00 01   29 01 08 0a 00 d4 23 
ap frm: do command, aId=2 cId=0x100,p1=0xbd5ff6e8 p2=15
000 2a 01 64 00 01 07 00 03   01 29 01 01 0a 00 d0 23   

ap frm: do command, aId=6 cId=0x100,p1=0xbddff658 p2=16
aAppGuiWrite to stm32
000 fd 01 01 10 14 60 
aAppGuiWrite to stm32
000 fd 01 03 11 02 02 d6 f8   
ap frm: do command, aId=0 cId=0x100,p1=0xbd5ff8f4 p2=18
app comm: send=18 
000 68 00 00 00 00 ff 90 68   80 06 f5 01 04 01 01 0a   
016 eb 16 
send:6800000000ff90688006f5010401010aeb16
000 2a 01 64 00 01 07 00 03   01 29 01 02 0a 00 d1 23   

ap frm: do command, aId=6 cId=0x100,p1=0xbddff658 p2=16
aAppGuiWrite to stm32
000 fd 01 01 10 14 60 
aAppGuiWrite to stm32
000 fd 01 03 11 02 04 d4 78   
ap frm: do command, aId=0 cId=0x100,p1=0xbd5ff8f4 p2=18
app comm: send=18 
000 68 00 00 00 00 ff 90 68   80 06 f5 01 04 01 02 0a   
016 ec 16 
send:6800000000ff90688006f5010401020aec16
Here is appMiscCallBack
MemoryCheck add=0x1950f0
000 2a 01 64 00 01 07 00 03   01 29 01 04 0a 00 d3 23   

ap frm: do command, aId=6 cId=0x100,p1=0xbddff658 p2=16
aAppGuiWrite to stm32
000 fd 01 01 10 14 60 
aAppGuiWrite to stm32
000 fd 01 03 11 02 08 d1 78   
ap frm: do command, aId=0 cId=0x100,p1=0xbd5ff8f4 p2=18
app comm: send=18 
000 68 00 00 00 00 ff 90 68   80 06 f5 01 04 01 04 0a   
016 ee 16 
send:6800000000ff90688006f5010401040aee16
000 2a 01 64 00 01 07 00 03   01 29 01 08 0a 00 d7 23   

ap frm: do command, aId=6 cId=0x100,p1=0xbddff658 p2=16
aAppGuiWrite to stm32
000 fd 01 01 10 14 60 
ap frm: do command, aId=0 cId=0x100,p1=0xbd5ff8f4 p2=18
app comm: send=18 
000 68 00 00 00 00 ff 90 68   80 06 f5 01 04 01 08 0a   
016 f2 16 
send:6800000000ff90688006f5010401080af216
aAppGuiRead from stm32
000 fd 01 04 11 01 02 00 42   92 fd 01 04 10 01 00 00   
016 de 92 fd 01 04 11 01 02   00 42 92 fd 01 04 10 01   
032 00 00 de 92 fd 01 04 11   01 02 00 42 92 fd 01 04   
048 10 01 00 00 de 92 fd 01   04 11 01 02 00 42 92 fd   
064 01 04 10 01 00 00 de 92   
000 2a 01 64 00 01 07 00 01   01 29 01 08 0a 00 d5 23   

ap frm: do command, aId=6 cId=0x100,p1=0xbddff374 p2=16
000 2a 01 64 00 01 04 00 01   02 01 00 98 23 
ap frm: do command, aId=6 cId=0x100,p1=0xbddff374 p2=13
000 2a 01 64 00 01 07 00 01   01 29 01 08 0a 00 d5 23   

ap frm: do command, aId=6 cId=0x100,p1=0xbddff374 p2=16
000 2a 01 64 00 01 04 00 01   02 01 00 98 23 
ap frm: do command, aId=6 cId=0x100,p1=0xbddff374 p2=13
000 2a 01 64 00 01 07 00 01   01 29 01 08 0a 00 d5 23   

ap frm: do command, aId=6 cId=0x100,p1=0xbddff374 p2=16
000 2a 01 64 00 01 04 00 01   02 01 00 98 23 
ap frm: do command, aId=6 cId=0x100,p1=0xbddff374 p2=13
000 2a 01 64 00 01 07 00 01   01 29 01 08 0a 00 d5 23   

ap frm: do command, aId=6 cId=0x100,p1=0xbddff374 p2=16
000 2a 01 64 00 01 04 00 01   02 01 00 98 23 
ap frm: do command, aId=6 cId=0x100,p1=0xbddff374 p2=13
ap frm: do command, aId=0 cId=0x100,p1=0xbd5ff8f4 p2=17
ap frm: do command, aId=0 cId=0x100,p1=0xbd5ff8f4 p2=15
ap frm: do command, aId=0 cId=0x100,p1=0xbd5ff8f4 p2=17
ap frm: do command, aId=0 cId=0x100,p1=0xbd5ff8f4 p2=15
ap frm: do command, aId=0 cId=0x100,p1=0xbd5ff8f4 p2=17
ap frm: do command, aId=0 cId=0x100,p1=0xbd5ff8f4 p2=15
ap frm: do command, aId=0 cId=0x100,p1=0xbd5ff8f4 p2=17
ap frm: do command, aId=0 cId=0x100,p1=0xbd5ff8f4 p2=15
app comm: send=17 
000 68 00 00 00 00 ff 90 68   f5 05 04 01 08 00 0a 70   
016 16 
send:6800000000ff9068f505040108000a7016
app comm: send=15 
000 68 00 00 00 00 ff 90 68   f5 03 05 01 00 5d 16 
send:6800000000ff9068f5030501005d16
app comm: send=17 
000 68 00 00 00 00 ff 90 68   f5 05 04 01 08 00 0a 70   
016 16 
send:6800000000ff9068f505040108000a7016
app comm: send=15 
000 68 00 00 00 00 ff 90 68   f5 03 05 01 00 5d 16 
send:6800000000ff9068f5030501005d16
app comm: send=17 
000 68 00 00 00 00 ff 90 68   f5 05 04 01 08 00 0a 70   
016 16 
send:6800000000ff9068f505040108000a7016
app comm: send=15 
000 68 00 00 00 00 ff 90 68   f5 03 05 01 00 5d 16 
send:6800000000ff9068f5030501005d16
app comm: send=17 
000 68 00 00 00 00 ff 90 68   f5 05 04 01 08 00 0a 70   
016 16 
send:6800000000ff9068f505040108000a7016
app comm: send=15 
000 68 00 00 00 00 ff 90 68   f5 03 05 01 00 5d 16 
send:6800000000ff9068f5030501005d16
Here is appMiscCallBack
Here is appMiscCallBack
Here is appMiscCallBack
Here is appMiscCallBack
Dev_gpm Write,baudrate=38400,checkBits=n
000 01 03 9c 40 00 3c 6a 5f   
Dev_gpm Read
000 01 03 78 00 00 00 00 00   00 00 00 43 58 e3 31 42   
016 90 97 76 00 00 00 00 43   58 80 5f 43 58 25 61 43   
032 10 37 3f 00 00 00 00 00   00 00 00 00 00 00 00 00   
048 00 00 00 00 00 00 00 42   47 e1 9f 00 00 00 00 00   
064 00 00 00 00 00 00 00 00   00 00 00 00 00 00 00 00   
080 00 00 00 00 00 00 00 00   00 00 00 00 00 00 00 00   
096 00 00 00 00 00 00 00 00   00 00 00 00 00 00 00 00   
112 00 00 00 00 00 00 00 00   00 00 00 cc 7f 
Here is appMiscCallBack
MemoryCheck add=0x195090
Here is appMiscCallBack
Here is appMiscCallBack
Here is appMiscCallBack
aAppGuiWrite to stm32
000 fd 00 07 04 e1 07 07 1c   0e 0c be 86 
Here is appMiscCallBack
Here is appMiscCallBack
MemoryCheck add=0x195090
Here is appMiscCallBack
Here is appMiscCallBack
Here is appMiscCallBack
Here is appMiscCallBack
Here is appMiscCallBack
MemoryCheck add=0x195090
Here is appMiscCallBack
Here is appMiscCallBack
Here is appMiscCallBack
Here is appMiscCallBack
Here is appMiscCallBack
MemoryCheck add=0x195090
Here is appMiscCallBack
Here is appMiscCallBack
app comm: recv=20,nowtime=1501251186
000 68 00 00 00 00 ff 90 68   f6 08 01 01 11 06 1c 0e   
016 0d 06 b3 16 
ap frm: do command, aId=6 cId=0x101,p1=0x129188 p2=20
000 2a 01 2c 01 02 02 00 01   01 5e 23 
ap frm: do command, aId=3 cId=0x101,p1=0xbd5ff6e8 p2=11
000 2a 01 2c 01 01 03 00 03   01 01 61 23 
ap frm: do command, aId=6 cId=0x100,p1=0xbdbff4b0 p2=12
ap frm: do command, aId=0 cId=0x100,p1=0xbd5ff8f4 p2=16
app comm: send=16 
000 68 00 00 00 00 ff 90 68   80 04 f6 01 01 01 dc 16   

delete from historyInfo where sec<=1499792703;
gpm history data save 0 days,now=1499792703
MdlBinaryFileLoad:/nand/history.dat SUCCESS
MdlBinaryFileSave SUCCESS
delete from historyInfo where sec<=1499879103;
gpm history data save 0 days,now=1499792703
MdlBinaryFileLoad:/nand/history.dat SUCCESS
MdlBinaryFileSave SUCCESS
Here is appMiscCallBack
Here is appMiscCallBack
#light online=1,offline=0,all=1,commOutage=0
Here is appMiscCallBack
MemoryCheck add=0x1950a0
Here is appMiscCallBack
Dev_gpm Write,baudrate=38400,checkBits=n
000 01 03 9c 40 00 3c 6a 5f   
Dev_gpm Read
000 01 03 78 00 00 00 00 00   00 00 00 43 59 5b 83 42   
016 90 e7 aa 00 00 00 00 43   58 f0 db 43 58 94 72 43   
032 10 81 c4 00 00 00 00 00   00 00 00 00 00 00 00 00   
048 00 00 00 00 00 00 00 42   48 01 b7 00 00 00 00 00   
064 00 00 00 00 00 00 00 00   00 00 00 00 00 00 00 00   
080 00 00 00 00 00 00 00 00   00 00 00 00 00 00 00 00   
096 00 00 00 00 00 00 00 00   00 00 00 00 00 00 00 00   
112 00 00 00 00 00 00 00 00   00 00 00 fb 35 
Here is appMiscCallBack
Here is appMiscCallBack
Here is appMiscCallBack
Here is appMiscCallBack
MemoryCheck add=0x1950a0
Here is appMiscCallBack
Here is appMiscCallBack
Here is appMiscCallBack
Here is appMiscCallBack
Here is appMiscCallBack
MemoryCheck add=0x1950a0
Here is appMiscCallBack
Here is appMiscCallBack
Here is appMiscCallBack
aAppGuiWrite to stm32
000 fd 00 07 04 e1 07 07 1c   0e 0d 7e 47 
Here is appMiscCallBack
Here is appMiscCallBack
MemoryCheck add=0x1950a0
Here is appMiscCallBack
Here is appMiscCallBack
Here is appMiscCallBack
Here is appMiscCallBack
Here is appMiscCallBack
MemoryCheck add=0x1950a0
Here is appMiscCallBack
Here is appMiscCallBack
Here is appMiscCallBack
Dev_gpm Write,baudrate=38400,checkBits=n
000 01 03 9c 40 00 3c 6a 5f   
Dev_gpm Read
000 01 03 78 00 00 00 00 00   00 00 00 43 59 84 97 42   
016 91 03 0f 00 00 00 00 43   59 13 2d 43 58 b7 fc 43   
032 10 99 0d 00 00 00 00 00   00 00 00 00 00 00 00 00   
048 00 00 00 00 00 00 00 42   48 10 11 00 00 00 00 00   
064 00 00 00 00 00 00 00 00   00 00 00 00 00 00 00 00   
080 00 00 00 00 00 00 00 00   00 00 00 00 00 00 00 00   
096 00 00 00 00 00 00 00 00   00 00 00 00 00 00 00 00   
112 00 00 00 00 00 00 00 00   00 00 00 b6 4c 
Here is appMiscCallBack
Here is appMiscCallBack
MemoryCheck add=0x1950a0
Here is appMiscCallBack
Here is appMiscCallBack
Here is appMiscCallBack
Here is appMiscCallBack
Here is appMiscCallBack
MemoryCheck add=0x1950a0
##发送心跳时间:1501251219
apMiscHeardbeat count=0
000 2a 01 02 00 01 02 00 02   ff 31 23 
ap frm: do command, aId=6 cId=0x100,p1=0xbd9ff854 p2=11
ap frm: do command, aId=0 cId=0x100,p1=0xbd5ff8f4 p2=13
app comm: send=13 
000 68 00 00 00 00 ff 90 68   f1 01 ff 50 16 
#light online=1,offline=0,all=1,commOutage=0
app comm: recv=14,nowtime=1501251219
000 68 00 00 00 00 ff 90 68   80 02 f1 01 d3 16 
ap frm: do command, aId=6 cId=0x101,p1=0x129188 p2=14
000 2a 01 02 00 02 01 00 01   31 23 
ap frm: do command, aId=4 cId=0x100,p1=0xbd5ff6e8 p2=10
##心跳回复时间:1501251219,count=0
Here is appMiscCallBack
Here is appMiscCallBack
Here is appMiscCallBack
Here is appMiscCallBack
Here is appMiscCallBack
MemoryCheck add=0x1950a0
Here is appMiscCallBack
Here is appMiscCallBack
Here is appMiscCallBack
Here is appMiscCallBack
Here is appMiscCallBack
MemoryCheck add=0x1950a0
Here is appMiscCallBack
Here is appMiscCallBack
Here is appMiscCallBack
aAppGuiWrite to stm32
000 fd 00 07 04 e1 07 07 1c   0e 0d 7e 47 
Here is appMiscCallBack
Here is appMiscCallBack
MemoryCheck add=0x1950a0
Dev_gpm Write,baudrate=38400,checkBits=n
000 01 03 9c 40 00 3c 6a 5f   
Dev_gpm Read
000 01 03 78 00 00 00 00 00   00 00 00 43 59 36 a6 42   
016 90 cf 19 00 00 00 00 43   58 d2 49 43 58 78 18 43   
032 10 6e 1f 00 00 00 00 00   00 00 00 00 00 00 00 00   
048 00 00 00 00 00 00 00 42   47 da 8b 00 00 00 00 00   
064 00 00 00 00 00 00 00 00   00 00 00 00 00 00 00 00   
080 00 00 00 00 00 00 00 00   00 00 00 00 00 00 00 00   
096 00 00 00 00 00 00 00 00   00 00 00 00 00 00 00 00   
112 00 00 00 00 00 00 00 00   00 00 00 2d 92 
Here is appMiscCallBack
Here is appMiscCallBack
Here is appMiscCallBack
Here is appMiscCallBack
Here is appMiscCallBack
MemoryCheck add=0x1950a0
Here is appMiscCallBack
Here is appMiscCallBack
Here is appMiscCallBack
Here is appMiscCallBack
Here is appMiscCallBack
MemoryCheck add=0x1950a0
Here is appMiscCallBack
Here is appMiscCallBack
Here is appMiscCallBack
Here is appMiscCallBack
ap frm: do command, aId=2 cId=0x104,p1=0xbdfffac4 p2=12
aAppGuiWrite to stm32
000 68 00 00 00 00 ff 90 68   23 00 82 16 
aAppGuiRead from stm32
000 68 00 00 00 00 ff 90 68   23 04 01 78 78 4c c3 16   

Here is appMiscCallBack
MemoryCheck add=0x1950a0
Here is appMiscCallBack
#light online=1,offline=0,all=1,commOutage=0
Here is appMiscCallBack
Here is appMiscCallBack
Here is appMiscCallBack
Here is appMiscCallBack
MemoryCheck add=0x1950a0
Here is appMiscCallBack
Here is appMiscCallBack
Dev_gpm Write,baudrate=38400,checkBits=n
000 01 03 9c 40 00 3c 6a 5f   
Dev_gpm Read
000 01 03 78 00 00 00 00 00   00 00 00 43 58 d4 85 42   
016 90 8d ad 00 00 00 00 43   58 6b ec 43 58 14 c8 43   
032 10 2a e5 00 00 00 00 00   00 00 00 00 00 00 00 00   
048 00 00 00 00 00 00 00 42   47 de 9c 00 00 00 00 00   
064 00 00 00 00 00 00 00 00   00 00 00 00 00 00 00 00   
080 00 00 00 00 00 00 00 00   00 00 00 00 00 00 00 00   
096 00 00 00 00 00 00 00 00   00 00 00 00 00 00 00 00   
112 00 00 00 00 00 00 00 00   00 00 00 44 00 
Here is appMiscCallBack
Here is appMiscCallBack
Here is appMiscCallBack
MemoryCheck add=0x1950a0
app comm: recv=13,nowtime=1501251259
000 68 00 00 07 64 15 e8 68   01 01 45 7f 16 
ap frm: do command, aId=6 cId=0x101,p1=0x129188 p2=13
000 2a 01 c8 00 02 0d 00 68   00 00 07 64 15 e8 68 01   
016 01 45 7f 16 16 23 
ap frm: do command, aId=1 cId=0x100,p1=0xbd5ff6e8 p2=22
ap frm: do command, aId=2 cId=0x104,p1=0x114433 p2=13
aAppGuiWrite to stm32
000 68 00 00 07 64 15 e8 68   01 01 45 7f 16 
Here is appMiscCallBack
aAppGuiRead from stm32
000 68 00 00 07 64 15 e8 68   01 05 45 42 14 00 09 e2   
016 16 00 
000 2a 01 c8 00 01 11 00 68   00 00 07 64 15 e8 68 01   
016 05 45 42 14 00 09 e2 16   df 23 
ap frm: do command, aId=6 cId=0x100,p1=0xbdfff624 p2=26
000 2a 01 c8 00 01 0f 00 68   00 00 00 00 ff 90 68 80   
016 03 01 01 45 29 16 6b 23   
ap frm: do command, aId=6 cId=0x100,p1=0xbdfff624 p2=24
ap frm: do command, aId=0 cId=0x100,p1=0xbd5ff8f4 p2=17
ap frm: do command, aId=0 cId=0x100,p1=0xbd5ff8f4 p2=15
app comm: send=17 
000 68 00 00 07 64 15 e8 68   01 05 45 42 14 00 09 e2   
016 16 
app comm: send=15 
000 68 00 00 00 00 ff 90 68   80 03 01 01 45 29 16 
Here is appMiscCallBack
Here is appMiscCallBack
aAppGuiWrite to stm32
000 fd 00 07 04 e1 07 07 1c   0e 0e 7f 07 
Here is appMiscCallBack
Here is appMiscCallBack
MemoryCheck add=0x191098
Here is appMiscCallBack
Here is appMiscCallBack
Here is appMiscCallBack
Here is appMiscCallBack
Here is appMiscCallBack
MemoryCheck add=0x191098
Here is appMiscCallBack
Here is appMiscCallBack
Here is appMiscCallBack
Here is appMiscCallBack
Here is appMiscCallBack
MemoryCheck add=0x191098
app comm: recv=13,nowtime=1501251274
000 68 00 00 07 64 15 e8 68   01 01 45 7f 16 
ap frm: do command, aId=6 cId=0x101,p1=0x129188 p2=13
000 2a 01 c8 00 02 0d 00 68   00 00 07 64 15 e8 68 01   
016 01 45 7f 16 16 23 
ap frm: do command, aId=1 cId=0x100,p1=0xbd5ff6e8 p2=22
ap frm: do command, aId=2 cId=0x104,p1=0x114433 p2=13
aAppGuiWrite to stm32
000 68 00 00 07 64 15 e8 68   01 01 45 7f 16 
aAppGuiRead from stm32
000 68 00 00 07 64 15 e8 68   01 04 45 42 14 00 d8 16   
016 16 
000 2a 01 c8 00 01 10 00 68   00 00 07 64 15 e8 68 01   
016 04 45 42 14 00 d8 16 ca   23 
ap frm: do command, aId=6 cId=0x100,p1=0xbdfff624 p2=25
000 2a 01 c8 00 01 0f 00 68   00 00 00 00 ff 90 68 80   
016 03 01 01 45 29 16 6b 23   
ap frm: do command, aId=6 cId=0x100,p1=0xbdfff624 p2=24
ap frm: do command, aId=0 cId=0x100,p1=0xbd5ff8f4 p2=16
ap frm: do command, aId=0 cId=0x100,p1=0xbd5ff8f4 p2=15
app comm: send=16 
000 68 00 00 07 64 15 e8 68   01 04 45 42 14 00 d8 16   

Here is appMiscCallBack
app comm: send=15 
000 68 00 00 00 00 ff 90 68   80 03 01 01 45 29 16 
Here is appMiscCallBack
Here is appMiscCallBack
Here is appMiscCallBack
Dev_gpm Write,baudrate=38400,checkBits=n
000 01 03 9c 40 00 3c 6a 5f   
Dev_gpm Read
000 01 03 78 00 00 00 00 00   00 00 00 43 59 da 3a 42   
016 91 3c 25 00 00 00 00 43   59 6d 28 43 59 12 12 43   
032 10 d5 14 00 00 00 00 00   00 00 00 00 00 00 00 00   
048 00 00 00 00 00 00 00 42   47 fb b1 00 00 00 00 00   
064 00 00 00 00 00 00 00 00   00 00 00 00 00 00 00 00   
080 00 00 00 00 00 00 00 00   00 00 00 00 00 00 00 00   
096 00 00 00 00 00 00 00 00   00 00 00 00 00 00 00 00   
112 00 00 00 00 00 00 00 00   00 00 00 0f 1d 
Here is appMiscCallBack
MemoryCheck add=0x1950a0
Here is appMiscCallBack
##发送心跳时间:1501251280
apMiscHeardbeat count=0
000 2a 01 02 00 01 02 00 02   ff 31 23 
ap frm: do command, aId=6 cId=0x100,p1=0xbd9ff854 p2=11
ap frm: do command, aId=0 cId=0x100,p1=0xbd5ff8f4 p2=13
app comm: send=13 
000 68 00 00 00 00 ff 90 68   f1 01 ff 50 16 
app comm: recv=14,nowtime=1501251280
000 68 00 00 00 00 ff 90 68   80 02 f1 01 d3 16 
ap frm: do command, aId=6 cId=0x101,p1=0x129188 p2=14
000 2a 01 02 00 02 01 00 01   31 23 
ap frm: do command, aId=4 cId=0x100,p1=0xbd5ff6e8 p2=10
##心跳回复时间:1501251280,count=0
Here is appMiscCallBack
#light online=1,offline=0,all=1,commOutage=0
Here is appMiscCallBack
Here is appMiscCallBack
Here is appMiscCallBack
MemoryCheck add=0x1950a0
Here is appMiscCallBack
Here is appMiscCallBack
Here is appMiscCallBack
Here is appMiscCallBack
Here is appMiscCallBack
MemoryCheck add=0x1950a0
Here is appMiscCallBack
Here is appMiscCallBack
Here is appMiscCallBack
aAppGuiWrite to stm32
000 fd 00 07 04 e1 07 07 1c   0e 0e 7f 07 
Here is appMiscCallBack
Here is appMiscCallBack
MemoryCheck add=0x1950a0
Here is appMiscCallBack
Here is appMiscCallBack
Here is appMiscCallBack
Here is appMiscCallBack
Here is appMiscCallBack
MemoryCheck add=0x1950a0
Here is appMiscCallBack
Dev_gpm Write,baudrate=38400,checkBits=n
000 01 03 9c 40 00 3c 6a 5f   
Dev_gpm Read
000 01 03 78 00 00 00 00 00   00 00 00 43 59 92 83 42   
016 91 0c 56 00 00 00 00 43   59 27 e3 43 58 cd c9 43   
032 10 a7 39 00 00 00 00 00   00 00 00 00 00 00 00 00   
048 00 00 00 00 00 00 00 42   48 04 13 00 00 00 00 00   
064 00 00 00 00 00 00 00 00   00 00 00 00 00 00 00 00   
080 00 00 00 00 00 00 00 00   00 00 00 00 00 00 00 00   
096 00 00 00 00 00 00 00 00   00 00 00 00 00 00 00 00   
112 00 00 00 00 00 00 00 00   00 00 00 cc 61 
Here is appMiscCallBack
Here is appMiscCallBack
Here is appMiscCallBack
Here is appMiscCallBack
MemoryCheck add=0x1950a0
Here is appMiscCallBack
Here is appMiscCallBack
Here is appMiscCallBack
Here is appMiscCallBack
Here is appMiscCallBack
MemoryCheck add=0x1950a0
Here is appMiscCallBack
Here is appMiscCallBack
Here is appMiscCallBack
#light online=1,offline=0,all=1,commOutage=0
Here is appMiscCallBack
Here is appMiscCallBack
MemoryCheck add=0x1950a0
Here is appMiscCallBack
Here is appMiscCallBack
Here is appMiscCallBack
Here is appMiscCallBack
Here is appMiscCallBack
MemoryCheck add=0x1950a0
Here is appMiscCallBack
Here is appMiscCallBack
Here is appMiscCallBack
Dev_gpm Write,baudrate=38400,checkBits=n
000 01 03 9c 40 00 3c 6a 5f   
Dev_gpm Read
000 01 03 78 00 00 00 00 00   00 00 00 43 5a 45 06 42   
016 91 83 58 00 00 00 00 43   59 d7 13 43 59 7c f2 43   
032 11 1c 04 00 00 00 00 00   00 00 00 00 00 00 00 00   
048 00 00 00 00 00 00 00 42   47 f1 35 00 00 00 00 00   
064 00 00 00 00 00 00 00 00   00 00 00 00 00 00 00 00   
080 00 00 00 00 00 00 00 00   00 00 00 00 00 00 00 00   
096 00 00 00 00 00 00 00 00   00 00 00 00 00 00 00 00   
112 00 00 00 00 00 00 00 00   00 00 00 d8 9e 
aAppGuiWrite to stm32
000 fd 00 07 04 e1 07 07 1c   0e 0f bf c6 
Here is appMiscCallBack
Here is appMiscCallBack
MemoryCheck add=0x1950a0
Here is appMiscCallBack
Here is appMiscCallBack
Here is appMiscCallBack
Here is appMiscCallBack
Here is appMiscCallBack
MemoryCheck add=0x1950a0
Here is appMiscCallBack
Here is appMiscCallBack
Here is appMiscCallBack
Here is appMiscCallBack
Here is appMiscCallBack
MemoryCheck add=0x1950a0
Here is appMiscCallBack
Here is appMiscCallBack
Here is appMiscCallBack
Here is appMiscCallBack
aAppGuiRead from stm32
000 68 00 00 07 64 15 e8 68   04 05 45 42 14 00 09 e5   
016 16 00 
Here is appMiscCallBack
MemoryCheck add=0x1950a0
ap frm: do command, aId=2 cId=0x104,p1=0xbdfffac4 p2=12
aAppGuiWrite to stm32
000 68 00 00 00 00 ff 90 68   23 00 82 16 
aAppGuiRead from stm32
000 68 00 00 00 00 ff 90 68   23 04 01 78 78 4c c3 16   

Here is appMiscCallBack
Here is appMiscCallBack
##发送心跳时间:1501251341
apMiscHeardbeat count=0
000 2a 01 02 00 01 02 00 02   ff 31 23 
ap frm: do command, aId=6 cId=0x100,p1=0xbd9ff854 p2=11
ap frm: do command, aId=0 cId=0x100,p1=0xbd5ff8f4 p2=13
app comm: send=13 
000 68 00 00 00 00 ff 90 68   f1 01 ff 50 16 
app comm: recv=14,nowtime=1501251341
000 68 00 00 00 00 ff 90 68   80 02 f1 01 d3 16 
ap frm: do command, aId=6 cId=0x101,p1=0x129188 p2=14
000 2a 01 02 00 02 01 00 01   31 23 
ap frm: do command, aId=4 cId=0x100,p1=0xbd5ff6e8 p2=10
##心跳回复时间:1501251341,count=0
Here is appMiscCallBack
Here is appMiscCallBack
#light online=1,offline=0,all=1,commOutage=0
Here is appMiscCallBack
MemoryCheck add=0x1950a0
Dev_gpm Write,baudrate=38400,checkBits=n
000 01 03 9c 40 00 3c 6a 5f   
Dev_gpm Read
000 01 03 78 00 00 00 00 00   00 00 00 43 5a 3d bb 42   
016 91 7e 7c 00 00 00 00 43   59 db 31 43 59 80 04 43   
032 11 1e 66 00 00 00 00 00   00 00 00 00 00 00 00 00   
048 00 00 00 00 00 00 00 42   47 dc 3d 00 00 00 00 00   
064 00 00 00 00 00 00 00 00   00 00 00 00 00 00 00 00   
080 00 00 00 00 00 00 00 00   00 00 00 00 00 00 00 00   
096 00 00 00 00 00 00 00 00   00 00 00 00 00 00 00 00   
112 00 00 00 00 00 00 00 00   00 00 00 a0 6d 
Here is appMiscCallBack
Here is appMiscCallBack
Here is appMiscCallBack
Here is appMiscCallBack
Here is appMiscCallBack
MemoryCheck add=0x1950a0
Here is appMiscCallBack
Here is appMiscCallBack
Here is appMiscCallBack
aAppGuiWrite to stm32
000 fd 00 07 04 e1 07 07 1c   0e 0f bf c6 
Here is appMiscCallBack
Here is appMiscCallBack
MemoryCheck add=0x1950a0
Here is appMiscCallBack
Here is appMiscCallBack
Here is appMiscCallBack
Here is appMiscCallBack
Here is appMiscCallBack
MemoryCheck add=0x1950a0
Here is appMiscCallBack
Here is appMiscCallBack
Here is appMiscCallBack
Here is appMiscCallBack
Here is appMiscCallBack
MemoryCheck add=0x1950a0
Here is appMiscCallBack
Here is appMiscCallBack
Dev_gpm Write,baudrate=38400,checkBits=n
000 01 03 9c 40 00 3c 6a 5f   
Dev_gpm Read
000 01 03 78 00 00 00 00 00   00 00 00 43 57 dc 45 42   
016 8f e8 2e 00 00 00 00 43   57 72 3d 43 57 1b 86 43   
032 0f 84 97 00 00 00 00 00   00 00 00 00 00 00 00 00   
048 00 00 00 00 00 00 00 42   47 e6 cd 00 00 00 00 00   
064 00 00 00 00 00 00 00 00   00 00 00 00 00 00 00 00   
080 00 00 00 00 00 00 00 00   00 00 00 00 00 00 00 00   
096 00 00 00 00 00 00 00 00   00 00 00 00 00 00 00 00   
112 00 00 00 00 00 00 00 00   00 00 00 c1 13 
Here is appMiscCallBack
Here is appMiscCallBack
Here is appMiscCallBack
MemoryCheck add=0x1950a0
Here is appMiscCallBack
Here is appMiscCallBack
Here is appMiscCallBack
Here is appMiscCallBack
Here is appMiscCallBack
MemoryCheck add=0x1950a0
#light online=1,offline=0,all=1,commOutage=0
Here is appMiscCallBack
Here is appMiscCallBack
Here is appMiscCallBack
Here is appMiscCallBack
Here is appMiscCallBack
MemoryCheck add=0x1950a0
Here is appMiscCallBack
Here is appMiscCallBack
Here is appMiscCallBack
aAppGuiWrite to stm32
000 fd 00 07 04 e1 07 07 1c   0e 10 77 87 
Here is appMiscCallBack
Here is appMiscCallBack
MemoryCheck add=0x1950a0
Here is appMiscCallBack
Here is appMiscCallBack
Here is appMiscCallBack
Here is appMiscCallBack
Dev_gpm Write,baudrate=38400,checkBits=n
000 01 03 9c 40 00 3c 6a 5f   
Dev_gpm Read
000 01 03 78 00 00 00 00 00   00 00 00 43 58 aa a9 42   
016 90 71 c6 00 00 00 00 43   58 3e f8 43 57 e6 3d 43   
032 10 0c 68 00 00 00 00 00   00 00 00 00 00 00 00 00   
048 00 00 00 00 00 00 00 42   48 01 3f 00 00 00 00 00   
064 00 00 00 00 00 00 00 00   00 00 00 00 00 00 00 00   
080 00 00 00 00 00 00 00 00   00 00 00 00 00 00 00 00   
096 00 00 00 00 00 00 00 00   00 00 00 00 00 00 00 00   
112 00 00 00 00 00 00 00 00   00 00 00 7e 64 
Here is appMiscCallBack
MemoryCheck add=0x1950a0
Here is appMiscCallBack
aAppGuiRead from stm32
000 68 00 00 07 64 15 e8 68   04 05 45 42 14 00 09 e5   
016 16 00 
Here is appMiscCallBack
Here is appMiscCallBack
Here is appMiscCallBack
Here is appMiscCallBack
MemoryCheck add=0x1950a0
Here is appMiscCallBack
Here is appMiscCallBack
Here is appMiscCallBack
Here is appMiscCallBack
Here is appMiscCallBack
MemoryCheck add=0x1950a0
Here is appMiscCallBack
Here is appMiscCallBack
Here is appMiscCallBack
##发送心跳时间:1501251402
apMiscHeardbeat count=0
000 2a 01 02 00 01 02 00 02   ff 31 23 
ap frm: do command, aId=6 cId=0x100,p1=0xbd9ff854 p2=11
ap frm: do command, aId=0 cId=0x100,p1=0xbd5ff8f4 p2=13
app comm: send=13 
000 68 00 00 00 00 ff 90 68   f1 01 ff 50 16 
app comm: recv=14,nowtime=1501251402
000 68 00 00 00 00 ff 90 68   80 02 f1 01 d3 16 
ap frm: do command, aId=6 cId=0x101,p1=0x129188 p2=14
000 2a 01 02 00 02 01 00 01   31 23 
ap frm: do command, aId=4 cId=0x100,p1=0xbd5ff6e8 p2=10
##心跳回复时间:1501251402,count=0
Here is appMiscCallBack
Here is appMiscCallBack
MemoryCheck add=0x1950a0
Here is appMiscCallBack
#light online=1,offline=0,all=1,commOutage=0
Here is appMiscCallBack
Here is appMiscCallBack
Here is appMiscCallBack
Here is appMiscCallBack
MemoryCheck add=0x1950a0
Here is appMiscCallBack
Dev_gpm Write,baudrate=38400,checkBits=n
000 01 03 9c 40 00 3c 6a 5f   
Dev_gpm Read
000 01 03 78 00 00 00 00 00   00 00 00 43 58 49 a6 42   
016 90 31 1b 00 00 00 00 43   57 e1 06 43 57 88 ec 43   
032 0f cd fb 00 00 00 00 00   00 00 00 00 00 00 00 00   
048 00 00 00 00 00 00 00 42   48 0d 07 00 00 00 00 00   
064 00 00 00 00 00 00 00 00   00 00 00 00 00 00 00 00   
080 00 00 00 00 00 00 00 00   00 00 00 00 00 00 00 00   
096 00 00 00 00 00 00 00 00   00 00 00 00 00 00 00 00   
112 00 00 00 00 00 00 00 00   00 00 00 ad 9c 
Here is appMiscCallBack
Here is appMiscCallBack
aAppGuiWrite to stm32
000 fd 00 07 04 e1 07 07 1c   0e 10 77 87 
Here is appMiscCallBack
Here is appMiscCallBack
MemoryCheck add=0x1950a0
Here is appMiscCallBack
Here is appMiscCallBack
Here is appMiscCallBack
Here is appMiscCallBack
Here is appMiscCallBack
MemoryCheck add=0x1950a0
Here is appMiscCallBack
aAppGuiRead from stm32
000 68 00 00 07 64 15 e8 68   04 05 45 42 14 00 09 e5   
016 16 00 
Here is appMiscCallBack
Here is appMiscCallBack
Here is appMiscCallBack
Here is appMiscCallBack
MemoryCheck add=0x1950a0
Here is appMiscCallBack
Here is appMiscCallBack
Here is appMiscCallBack
Here is appMiscCallBack
Here is appMiscCallBack
MemoryCheck add=0x1950a0
Here is appMiscCallBack
ap frm: do command, aId=2 cId=0x104,p1=0xbdfffac4 p2=12
aAppGuiWrite to stm32
000 68 00 00 00 00 ff 90 68   23 00 82 16 
aAppGuiRead from stm32
000 68 00 00 00 00 ff 90 68   23 04 01 78 78 4c c3 16   

Here is appMiscCallBack
Here is appMiscCallBack
Dev_gpm Write,baudrate=38400,checkBits=n
000 01 03 9c 40 00 3c 6a 5f   
Dev_gpm Read
000 01 03 78 00 00 00 00 00   00 00 00 43 59 3d 3d 42   
016 90 d3 7f 00 00 00 00 43   58 d3 1f 43 58 79 83 43   
032 10 6e e3 00 00 00 00 00   00 00 00 00 00 00 00 00   
048 00 00 00 00 00 00 00 42   47 fa db 00 00 00 00 00   
064 00 00 00 00 00 00 00 00   00 00 00 00 00 00 00 00   
080 00 00 00 00 00 00 00 00   00 00 00 00 00 00 00 00   
096 00 00 00 00 00 00 00 00   00 00 00 00 00 00 00 00   
112 00 00 00 00 00 00 00 00   00 00 00 80 b6 
Here is appMiscCallBack
Here is appMiscCallBack
MemoryCheck add=0x1950a0
Here is appMiscCallBack
Here is appMiscCallBack
#light online=1,offline=0,all=1,commOutage=0
Here is appMiscCallBack
Here is appMiscCallBack
Here is appMiscCallBack
MemoryCheck add=0x1950a0
Here is appMiscCallBack
Here is appMiscCallBack
Here is appMiscCallBack
aAppGuiWrite to stm32
000 fd 00 07 04 e1 07 07 1c   0e 11 b7 46 
Here is appMiscCallBack
Here is appMiscCallBack
MemoryCheck add=0x1950a0
Here is appMiscCallBack
Here is appMiscCallBack
Here is appMiscCallBack
Here is appMiscCallBack
Here is appMiscCallBack
MemoryCheck add=0x1950a0
Here is appMiscCallBack
Here is appMiscCallBack
Here is appMiscCallBack
Here is appMiscCallBack
Here is appMiscCallBack
MemoryCheck add=0x1950a0
Dev_gpm Write,baudrate=38400,checkBits=n
000 01 03 9c 40 00 3c 6a 5f   
Dev_gpm Read
000 01 03 78 00 00 00 00 00   00 00 00 43 59 83 f7 42   
016 91 02 a6 00 00 00 00 43   59 22 da 43 58 c7 41 43   
032 10 a3 5d 00 00 00 00 00   00 00 00 00 00 00 00 00   
048 00 00 00 00 00 00 00 42   47 dc c1 00 00 00 00 00   
064 00 00 00 00 00 00 00 00   00 00 00 00 00 00 00 00   
080 00 00 00 00 00 00 00 00   00 00 00 00 00 00 00 00   
096 00 00 00 00 00 00 00 00   00 00 00 00 00 00 00 00   
112 00 00 00 00 00 00 00 00   00 00 00 a9 12 
Here is appMiscCallBack
Here is appMiscCallBack
Here is appMiscCallBack
Here is appMiscCallBack
Here is appMiscCallBack
MemoryCheck add=0x1950a0
Here is appMiscCallBack
Here is appMiscCallBack
Here is appMiscCallBack
Here is appMiscCallBack
##发送心跳时间:1501251463
apMiscHeardbeat count=0
000 2a 01 02 00 01 02 00 02   ff 31 23 
ap frm: do command, aId=6 cId=0x100,p1=0xbd9ff854 p2=11
ap frm: do command, aId=0 cId=0x100,p1=0xbd5ff8f4 p2=13
app comm: send=13 
000 68 00 00 00 00 ff 90 68   f1 01 ff 50 16 
app comm: recv=14,nowtime=1501251463
000 68 00 00 00 00 ff 90 68   80 02 f1 01 d3 16 
ap frm: do command, aId=6 cId=0x101,p1=0x129188 p2=14
000 2a 01 02 00 02 01 00 01   31 23 
ap frm: do command, aId=4 cId=0x100,p1=0xbd5ff6e8 p2=10
##心跳回复时间:1501251463,count=0
Here is appMiscCallBack
MemoryCheck add=0x1950a0
Here is appMiscCallBack
Here is appMiscCallBack
Here is appMiscCallBack
#light online=1,offline=0,all=1,commOutage=0
Here is appMiscCallBack
Here is appMiscCallBack
MemoryCheck add=0x1950a0
Here is appMiscCallBack
Here is appMiscCallBack
Here is appMiscCallBack
aAppGuiWrite to stm32
000 fd 00 07 04 e1 07 07 1c   0e 11 b7 46 
Here is appMiscCallBack
Here is appMiscCallBack
MemoryCheck add=0x1950a0
Here is appMiscCallBack
Here is appMiscCallBack
Dev_gpm Write,baudrate=38400,checkBits=n
000 01 03 9c 40 00 3c 6a 5f   
Dev_gpm Read
000 01 03 78 00 00 00 00 00   00 00 00 43 59 bd ba 42   
016 91 29 24 00 00 00 00 43   59 5d 7f 43 59 01 b3 43   
032 10 ca 67 00 00 00 00 00   00 00 00 00 00 00 00 00   
048 00 00 00 00 00 00 00 42   47 de fc 00 00 00 00 00   
064 00 00 00 00 00 00 00 00   00 00 00 00 00 00 00 00   
080 00 00 00 00 00 00 00 00   00 00 00 00 00 00 00 00   
096 00 00 00 00 00 00 00 00   00 00 00 00 00 00 00 00   
112 00 00 00 00 00 00 00 00   00 00 00 e6 34 
Here is appMiscCallBack
Here is appMiscCallBack
Here is appMiscCallBack
MemoryCheck add=0x1950a0
Here is appMiscCallBack
Here is appMiscCallBack
Here is appMiscCallBack
Here is appMiscCallBack
Here is appMiscCallBack
MemoryCheck add=0x1950a0
Here is appMiscCallBack
Here is appMiscCallBack
aAppGuiRead from stm32
000 68 00 00 07 64 15 e8 68   04 05 45 42 14 00 09 e5   
016 16 00 
Here is appMiscCallBack
Here is appMiscCallBack
Here is appMiscCallBack
MemoryCheck add=0x1950a0
Here is appMiscCallBack
Here is appMiscCallBack
Here is appMiscCallBack
Here is appMiscCallBack
Here is appMiscCallBack
MemoryCheck add=0x1950a0
Here is appMiscCallBack
Here is appMiscCallBack
Here is appMiscCallBack
Here is appMiscCallBack
#light online=1,offline=0,all=1,commOutage=0
Dev_gpm Write,baudrate=38400,checkBits=n
000 01 03 9c 40 00 3c 6a 5f   
Dev_gpm Read
000 01 03 78 00 00 00 00 00   00 00 00 43 59 0d b8 42   
016 90 b3 d2 00 00 00 00 43   58 9f 2d 43 58 42 ff 43   
032 10 4b 66 00 00 00 00 00   00 00 00 00 00 00 00 00   
048 00 00 00 00 00 00 00 42   47 ef 8b 00 00 00 00 00   
064 00 00 00 00 00 00 00 00   00 00 00 00 00 00 00 00   
080 00 00 00 00 00 00 00 00   00 00 00 00 00 00 00 00   
096 00 00 00 00 00 00 00 00   00 00 00 00 00 00 00 00   
112 00 00 00 00 00 00 00 00   00 00 00 ea 93 
Here is appMiscCallBack
MemoryCheck add=0x1950a0
Here is appMiscCallBack
Here is appMiscCallBack
Here is appMiscCallBack
aAppGuiWrite to stm32
000 fd 00 07 04 e1 07 07 1c   0e 12 b6 06 
Here is appMiscCallBack
Here is appMiscCallBack
MemoryCheck add=0x1950a0
Here is appMiscCallBack
Here is appMiscCallBack
Here is appMiscCallBack
Here is appMiscCallBack
Here is appMiscCallBack
MemoryCheck add=0x1950a0
Here is appMiscCallBack
Here is appMiscCallBack
Here is appMiscCallBack
Here is appMiscCallBack
Here is appMiscCallBack
MemoryCheck add=0x1950a0
Here is appMiscCallBack
Here is appMiscCallBack
Here is appMiscCallBack
Here is appMiscCallBack
Here is appMiscCallBack
MemoryCheck add=0x1950a0
Here is appMiscCallBack
Dev_gpm Write,baudrate=38400,checkBits=n
000 01 03 9c 40 00 3c 6a 5f   
Dev_gpm Read
000 01 03 78 00 00 00 00 00   00 00 00 43 5b 62 af 42   
016 92 41 cd 00 00 00 00 43   5a ef d6 43 5a 96 25 43   
032 11 d7 53 00 00 00 00 00   00 00 00 00 00 00 00 00   
048 00 00 00 00 00 00 00 42   48 08 17 00 00 00 00 00   
064 00 00 00 00 00 00 00 00   00 00 00 00 00 00 00 00   
080 00 00 00 00 00 00 00 00   00 00 00 00 00 00 00 00   
096 00 00 00 00 00 00 00 00   00 00 00 00 00 00 00 00   
112 00 00 00 00 00 00 00 00   00 00 00 d7 97 
Here is appMiscCallBack
ap frm: do command, aId=2 cId=0x104,p1=0xbdfffac4 p2=12
aAppGuiWrite to stm32
000 68 00 00 00 00 ff 90 68   23 00 82 16 
aAppGuiRead from stm32
000 68 00 00 00 00 ff 90 68   23 04 01 78 78 4c c3 16   

Here is appMiscCallBack
Here is appMiscCallBack
Here is appMiscCallBack
MemoryCheck add=0x1950a0
##发送心跳时间:1501251524
apMiscHeardbeat count=0
000 2a 01 02 00 01 02 00 02   ff 31 23 
ap frm: do command, aId=6 cId=0x100,p1=0xbd9ff854 p2=11
ap frm: do command, aId=0 cId=0x100,p1=0xbd5ff8f4 p2=13
app comm: send=13 
000 68 00 00 00 00 ff 90 68   f1 01 ff 50 16 
app comm: recv=14,nowtime=1501251524
000 68 00 00 00 00 ff 90 68   80 02 f1 01 d3 16 
ap frm: do command, aId=6 cId=0x101,p1=0x129188 p2=14
000 2a 01 02 00 02 01 00 01   31 23 
ap frm: do command, aId=4 cId=0x100,p1=0xbd5ff6e8 p2=10
##心跳回复时间:1501251524,count=0
Here is appMiscCallBack
Here is appMiscCallBack
Here is appMiscCallBack
Here is appMiscCallBack
Here is appMiscCallBack
MemoryCheck add=0x1950a0
#light online=1,offline=0,all=1,commOutage=0
Here is appMiscCallBack
Here is appMiscCallBack
Here is appMiscCallBack
aAppGuiWrite to stm32
000 fd 00 07 04 e1 07 07 1c   0e 12 b6 06 
Here is appMiscCallBack
Here is appMiscCallBack
MemoryCheck add=0x1950a0
Here is appMiscCallBack
Here is appMiscCallBack
Here is appMiscCallBack
Here is appMiscCallBack
Here is appMiscCallBack
MemoryCheck add=0x1950a0
Here is appMiscCallBack
Here is appMiscCallBack
Here is appMiscCallBack
Dev_gpm Write,baudrate=38400,checkBits=n
000 01 03 9c 40 00 3c 6a 5f   
Dev_gpm Read
000 01 03 78 00 00 00 00 00   00 00 00 43 5c 83 dd 42   
016 93 02 92 00 00 00 00 43   5c 1b 91 43 5b be 2f 43   
032 12 9d ed 00 00 00 00 00   00 00 00 00 00 00 00 00   
048 00 00 00 00 00 00 00 42   48 0a 95 00 00 00 00 00   
064 00 00 00 00 00 00 00 00   00 00 00 00 00 00 00 00   
080 00 00 00 00 00 00 00 00   00 00 00 00 00 00 00 00   
096 00 00 00 00 00 00 00 00   00 00 00 00 00 00 00 00   
112 00 00 00 00 00 00 00 00   00 00 00 70 20 
Here is appMiscCallBack
Here is appMiscCallBack
MemoryCheck add=0x1950a0
aAppGuiRead from stm32
000 68 00 00 07 64 15 e8 68   04 05 45 42 14 00 09 e5   
016 16 00 
Here is appMiscCallBack
Here is appMiscCallBack
Here is appMiscCallBack
Here is appMiscCallBack
Here is appMiscCallBack
MemoryCheck add=0x1950a0
Here is appMiscCallBack
Here is appMiscCallBack
Here is appMiscCallBack
Here is appMiscCallBack
Here is appMiscCallBack
MemoryCheck add=0x1950a0
Here is appMiscCallBack
Here is appMiscCallBack
Here is appMiscCallBack
Here is appMiscCallBack
Here is appMiscCallBack
MemoryCheck add=0x1950a0
Here is appMiscCallBack
#light online=1,offline=0,all=1,commOutage=0
Here is appMiscCallBack
Here is appMiscCallBack
aAppGuiWrite to stm32
000 fd 00 07 04 e1 07 07 1c   0e 13 76 c7 
Here is appMiscCallBack
Here is appMiscCallBack
MemoryCheck add=0x1950a0
Dev_gpm Write,baudrate=38400,checkBits=n
000 01 03 9c 40 00 3c 6a 5f   
Dev_gpm Read
000 01 03 78 00 00 00 00 00   00 00 00 43 5d 2c 25 42   
016 93 72 c5 00 00 00 00 43   5c b5 a0 43 5c 58 33 43   
032 13 04 9d 00 00 00 00 00   00 00 00 00 00 00 00 00   
048 00 00 00 00 00 00 00 42   47 f6 9b 00 00 00 00 00   
064 00 00 00 00 00 00 00 00   00 00 00 00 00 00 00 00   
080 00 00 00 00 00 00 00 00   00 00 00 00 00 00 00 00   
096 00 00 00 00 00 00 00 00   00 00 00 00 00 00 00 00   
112 00 00 00 00 00 00 00 00   00 00 00 12 1d 
Here is appMiscCallBack
Here is appMiscCallBack
Here is appMiscCallBack
Here is appMiscCallBack
Here is appMiscCallBack
MemoryCheck add=0x1950a0
Here is appMiscCallBack
Here is appMiscCallBack
Here is appMiscCallBack
Here is appMiscCallBack
Here is appMiscCallBack
MemoryCheck add=0x1950a0
Here is appMiscCallBack
Here is appMiscCallBack
Here is appMiscCallBack
Here is appMiscCallBack
Here is appMiscCallBack
MemoryCheck add=0x1950a0
Here is appMiscCallBack
Here is appMiscCallBack
Here is appMiscCallBack
Here is appMiscCallBack
Here is appMiscCallBack
MemoryCheck add=0x1950a0
Here is appMiscCallBack
##发送心跳时间:1501251585
apMiscHeardbeat count=0
000 2a 01 02 00 01 02 00 02   ff 31 23 
ap frm: do command, aId=6 cId=0x100,p1=0xbd9ff854 p2=11
ap frm: do command, aId=0 cId=0x100,p1=0xbd5ff8f4 p2=13
app comm: send=13 
000 68 00 00 00 00 ff 90 68   f1 01 ff 50 16 
app comm: recv=14,nowtime=1501251585
000 68 00 00 00 00 ff 90 68   80 02 f1 01 d3 16 
ap frm: do command, aId=6 cId=0x101,p1=0x129188 p2=14
000 2a 01 02 00 02 01 00 01   31 23 
ap frm: do command, aId=4 cId=0x100,p1=0xbd5ff6e8 p2=10
##心跳回复时间:1501251585,count=0
Here is appMiscCallBack
Dev_gpm Write,baudrate=38400,checkBits=n
000 01 03 9c 40 00 3c 6a 5f   
Dev_gpm Read
000 01 03 78 00 00 00 00 00   00 00 00 43 5d 47 26 42   
016 93 84 c5 00 00 00 00 43   5c df 04 43 5c 85 ed 43   
032 13 21 a4 00 00 00 00 00   00 00 00 00 00 00 00 00   
048 00 00 00 00 00 00 00 42   47 e7 e4 00 00 00 00 00   
064 00 00 00 00 00 00 00 00   00 00 00 00 00 00 00 00   
080 00 00 00 00 00 00 00 00   00 00 00 00 00 00 00 00   
096 00 00 00 00 00 00 00 00   00 00 00 00 00 00 00 00   
112 00 00 00 00 00 00 00 00   00 00 00 d2 96 
Here is appMiscCallBack
Here is appMiscCallBack
Here is appMiscCallBack
MemoryCheck add=0x1950a0
Here is appMiscCallBack
Here is appMiscCallBack
#light online=1,offline=0,all=1,commOutage=0
Here is appMiscCallBack
aAppGuiWrite to stm32
000 fd 00 07 04 e1 07 07 1c   0e 13 76 c7 
Here is appMiscCallBack
Here is appMiscCallBack
MemoryCheck add=0x1950a0
Here is appMiscCallBack
Here is appMiscCallBack
Here is appMiscCallBack
Here is appMiscCallBack
Here is appMiscCallBack
MemoryCheck add=0x1950a0
Here is appMiscCallBack
Here is appMiscCallBack
Here is appMiscCallBack
Here is appMiscCallBack
Here is appMiscCallBack
MemoryCheck add=0x1950a0
Here is appMiscCallBack
Here is appMiscCallBack
Here is appMiscCallBack
Here is appMiscCallBack
Dev_gpm Write,baudrate=38400,checkBits=n
000 01 03 9c 40 00 3c 6a 5f   
Dev_gpm Read
000 01 03 78 00 00 00 00 00   00 00 00 43 5c ba 4e 42   
016 93 26 dd 00 00 00 00 43   5c 59 e1 43 5b fe 7a 43   
032 12 c8 1d 00 00 00 00 00   00 00 00 00 00 00 00 00   
048 00 00 00 00 00 00 00 42   47 d9 a1 00 00 00 00 00   
064 00 00 00 00 00 00 00 00   00 00 00 00 00 00 00 00   
080 00 00 00 00 00 00 00 00   00 00 00 00 00 00 00 00   
096 00 00 00 00 00 00 00 00   00 00 00 00 00 00 00 00   
112 00 00 00 00 00 00 00 00   00 00 00 29 28 
Here is appMiscCallBack
MemoryCheck add=0x1950a0
Here is appMiscCallBack
Here is appMiscCallBack
Here is appMiscCallBack
ap frm: do command, aId=2 cId=0x104,p1=0xbdfffac4 p2=12
aAppGuiWrite to stm32
000 68 00 00 00 00 ff 90 68   23 00 82 16 
aAppGuiRead from stm32
000 68 00 00 00 00 ff 90 68   23 04 01 78 78 4c c3 16   

Here is appMiscCallBack
Here is appMiscCallBack
MemoryCheck add=0x1950a0
Here is appMiscCallBack
Here is appMiscCallBack
Here is appMiscCallBack
Here is appMiscCallBack
Here is appMiscCallBack
MemoryCheck add=0x1950a0
Here is appMiscCallBack
Here is appMiscCallBack
Here is appMiscCallBack
#light online=1,offline=0,all=1,commOutage=0
aAppGuiWrite to stm32
000 fd 00 07 04 e1 07 07 1c   0e 14 b4 86 
Here is appMiscCallBack
Here is appMiscCallBack
MemoryCheck add=0x1950a0
Here is appMiscCallBack
Here is appMiscCallBack
Here is appMiscCallBack
Here is appMiscCallBack
Here is appMiscCallBack
MemoryCheck add=0x1950a0
aAppGuiRead from stm32
000 fd 01 01 01 18 a0 
aAppGuiWrite to stm32
000 fd 00 09 01 0d 4a 5a 2f   a1 1b 01 01 a5 77 
Here is appMiscCallBack
Dev_gpm Write,baudrate=38400,checkBits=n
000 01 03 9c 40 00 3c 6a 5f   
Dev_gpm Read
000 01 03 78 00 00 00 00 00   00 00 00 43 5c e2 74 42   
016 93 41 a4 00 00 00 00 43   5c 73 3d 43 5c 17 21 43   
032 12 d8 c9 00 00 00 00 00   00 00 00 00 00 00 00 00   
048 00 00 00 00 00 00 00 42   47 dd 59 00 00 00 00 00   
064 00 00 00 00 00 00 00 00   00 00 00 00 00 00 00 00   
080 00 00 00 00 00 00 00 00   00 00 00 00 00 00 00 00   
096 00 00 00 00 00 00 00 00   00 00 00 00 00 00 00 00   
112 00 00 00 00 00 00 00 00   00 00 00 70 4c 
Here is appMiscCallBack
Here is appMiscCallBack
Here is appMiscCallBack
Here is appMiscCallBack
MemoryCheck add=0x1950a0
Here is appMiscCallBack
Here is appMiscCallBack
Here is appMiscCallBack
Here is appMiscCallBack
Dev_gpm Write,baudrate=38400,checkBits=n
000 01 03 9c 40 00 3c 6a 5f   
Dev_gpm Read
000 01 03 78 00 00 00 00 00   00 00 00 43 5c fb 00 42   
016 93 52 01 00 00 00 00 43   5c 8e 54 43 5c 30 65 43   
032 12 ea 3d 00 00 00 00 00   00 00 00 00 00 00 00 00   
048 00 00 00 00 00 00 00 42   47 e3 05 00 00 00 00 00   
064 00 00 00 00 00 00 00 00   00 00 00 00 00 00 00 00   
080 00 00 00 00 00 00 00 00   00 00 00 00 00 00 00 00   
096 00 00 00 00 00 00 00 00   00 00 00 00 00 00 00 00   
112 00 00 00 00 00 00 00 00   00 00 00 e8 de 
Dev_gpm Write,baudrate=38400,checkBits=n
000 01 03 9d 3a 00 08 4b ad   
Dev_gpm Read
000 01 03 10 3f e9 aa 98 e0   9b a4 2b 3f d3 2d 48 c9   
016 be 6e e6 aa 82 
@@@DevGpmReadPower 0.802075 kWh,0.299639 kvarh
Here is appMiscCallBack
MemoryCheck add=0x1950a0
Here is appMiscCallBack
Here is appMiscCallBack
aAppGuiRead from stm32
000 fd 01 01 01 18 a0 
aAppGuiWrite to stm32
000 fd 00 09 01 0d 4a 5a 2f   a1 1b 01 01 a5 77 
Here is appMiscCallBack
Here is appMiscCallBack
Here is appMiscCallBack
MemoryCheck add=0x1950a0
Here is appMiscCallBack
Here is appMiscCallBack
##发送心跳时间:1501251646
apMiscHeardbeat count=0
000 2a 01 02 00 01 02 00 02   ff 31 23 
ap frm: do command, aId=6 cId=0x100,p1=0xbd9ff854 p2=11
ap frm: do command, aId=0 cId=0x100,p1=0xbd5ff8f4 p2=13
app comm: send=13 
000 68 00 00 00 00 ff 90 68   f1 01 ff 50 16 
app comm: recv=14,nowtime=1501251646
000 68 00 00 00 00 ff 90 68   80 02 f1 01 d3 16 
ap frm: do command, aId=6 cId=0x101,p1=0x129188 p2=14
000 2a 01 02 00 02 01 00 01   31 23 
ap frm: do command, aId=4 cId=0x100,p1=0xbd5ff6e8 p2=10
##心跳回复时间:1501251646,count=0
Here is appMiscCallBack
Here is appMiscCallBack
Here is appMiscCallBack
MemoryCheck add=0x1950a0
Here is appMiscCallBack
Here is appMiscCallBack
Here is appMiscCallBack
Dev_gpm Write,baudrate=38400,checkBits=n
000 01 03 9c 40 00 3c 6a 5f   
aAppGuiWrite to stm32
000 fd 00 07 04 e1 07 07 1c   0e 14 b4 86 
Dev_gpm Read
000 01 03 78 00 00 00 00 00   00 00 00 43 5c 95 09 42   
016 93 0e 04 00 00 00 00 43   5c 25 0f 43 5b c7 6f 43   
032 12 a4 2c 00 00 00 00 00   00 00 00 00 00 00 00 00   
048 00 00 00 00 00 00 00 42   47 ea 01 00 00 00 00 00   
064 00 00 00 00 00 00 00 00   00 00 00 00 00 00 00 00   
080 00 00 00 00 00 00 00 00   00 00 00 00 00 00 00 00   
096 00 00 00 00 00 00 00 00   00 00 00 00 00 00 00 00   
112 00 00 00 00 00 00 00 00   00 00 00 ee dd 
Here is appMiscCallBack
#light online=1,offline=0,all=1,commOutage=0
Here is appMiscCallBack
MemoryCheck add=0x1950a0
Here is appMiscCallBack
Here is appMiscCallBack
Here is appMiscCallBack
Here is appMiscCallBack
Here is appMiscCallBack
MemoryCheck add=0x1950a0
Here is appMiscCallBack
Here is appMiscCallBack
Here is appMiscCallBack
Here is appMiscCallBack
Here is appMiscCallBack
MemoryCheck add=0x1950a0
Here is appMiscCallBack
Here is appMiscCallBack
Here is appMiscCallBack
Here is appMiscCallBack
Here is appMiscCallBack
MemoryCheck add=0x1950a0
Here is appMiscCallBack
Here is appMiscCallBack
Here is appMiscCallBack
Here is appMiscCallBack
Here is appMiscCallBack
MemoryCheck add=0x1950a0
Dev_gpm Write,baudrate=38400,checkBits=n
000 01 03 9c 40 00 3c 6a 5f   
Dev_gpm Read
000 01 03 78 00 00 00 00 00   00 00 00 43 5c 5c 45 42   
016 92 e8 2d 00 00 00 00 43   5b f6 93 43 5b 9a 46 43   
032 12 85 9e 00 00 00 00 00   00 00 00 00 00 00 00 00   
048 00 00 00 00 00 00 00 42   48 04 38 00 00 00 00 00   
064 00 00 00 00 00 00 00 00   00 00 00 00 00 00 00 00   
080 00 00 00 00 00 00 00 00   00 00 00 00 00 00 00 00   
096 00 00 00 00 00 00 00 00   00 00 00 00 00 00 00 00   
112 00 00 00 00 00 00 00 00   00 00 00 79 2c 
Here is appMiscCallBack
Here is appMiscCallBack
Here is appMiscCallBack
Here is appMiscCallBack
Here is appMiscCallBack
MemoryCheck add=0x1950a0
Here is appMiscCallBack
Here is appMiscCallBack
Here is appMiscCallBack
aAppGuiWrite to stm32
000 fd 00 07 04 e1 07 07 1c   0e 15 74 47 
aAppGuiRead from stm32
000 fd 01 01 03 d9 21 
aAppGuiWrite to stm32
000 fd 00 29 03 61 01 a8 c0   00 00 00 00 ff 90 52 32   
016 56 31 2e 35 42 35 31 31   00 00 00 00 00 00 00 00   
032 00 00 00 00 00 00 00 00   00 00 00 00 76 fe 
Here is appMiscCallBack
Here is appMiscCallBack
MemoryCheck add=0x1950a0
#light online=1,offline=0,all=1,commOutage=0
Here is appMiscCallBack
Here is appMiscCallBack
Here is appMiscCallBack
Here is appMiscCallBack
Here is appMiscCallBack
MemoryCheck add=0x1950a0
Here is appMiscCallBack
Here is appMiscCallBack
Here is appMiscCallBack
Here is appMiscCallBack
Here is appMiscCallBack
MemoryCheck add=0x1950a0
Here is appMiscCallBack
Here is appMiscCallBack
Dev_gpm Write,baudrate=38400,checkBits=n
000 01 03 9c 40 00 3c 6a 5f   
Dev_gpm Read
000 01 03 78 00 00 00 00 00   00 00 00 43 5b c5 78 42   
016 92 83 a4 00 00 00 00 43   5b 59 d4 43 5a ff 92 43   
032 12 1d cc 00 00 00 00 00   00 00 00 00 00 00 00 00   
048 00 00 00 00 00 00 00 42   47 ff 18 00 00 00 00 00   
064 00 00 00 00 00 00 00 00   00 00 00 00 00 00 00 00   
080 00 00 00 00 00 00 00 00   00 00 00 00 00 00 00 00   
096 00 00 00 00 00 00 00 00   00 00 00 00 00 00 00 00   
112 00 00 00 00 00 00 00 00   00 00 00 d2 a8 
Here is appMiscCallBack
Here is appMiscCallBack
Here is appMiscCallBack
MemoryCheck add=0x1950a0
Here is appMiscCallBack
Here is appMiscCallBack
Here is appMiscCallBack
Here is appMiscCallBack
ap frm: do command, aId=2 cId=0x104,p1=0xbdfffac4 p2=12
aAppGuiWrite to stm32
000 68 00 00 00 00 ff 90 68   23 00 82 16 
aAppGuiRead from stm32
000 68 00 00 00 00 ff 90 68   23 04 01 78 78 4c c3 16   

Here is appMiscCallBack
MemoryCheck add=0x1950a0
Here is appMiscCallBack
Here is appMiscCallBack
Here is appMiscCallBack
##发送心跳时间:1501251707
apMiscHeardbeat count=0
000 2a 01 02 00 01 02 00 02   ff 31 23 
ap frm: do command, aId=6 cId=0x100,p1=0xbd9ff854 p2=11
ap frm: do command, aId=0 cId=0x100,p1=0xbd5ff8f4 p2=13
app comm: send=13 
000 68 00 00 00 00 ff 90 68   f1 01 ff 50 16 
app comm: recv=14,nowtime=1501251707
000 68 00 00 00 00 ff 90 68   80 02 f1 01 d3 16 
ap frm: do command, aId=6 cId=0x101,p1=0x129188 p2=14
000 2a 01 02 00 02 01 00 01   31 23 
ap frm: do command, aId=4 cId=0x100,p1=0xbd5ff6e8 p2=10
##心跳回复时间:1501251707,count=0
Here is appMiscCallBack
Here is appMiscCallBack
MemoryCheck add=0x1950a0
Here is appMiscCallBack
Here is appMiscCallBack
Here is appMiscCallBack
aAppGuiWrite to stm32
000 fd 00 07 04 e1 07 07 1c   0e 15 74 47 
aAppGuiRead from stm32
000 fd 01 01 03 d9 21 
aAppGuiWrite to stm32
000 fd 00 29 03 61 01 a8 c0   00 00 00 00 ff 90 52 32   
016 56 31 2e 35 42 35 31 31   00 00 00 00 00 00 00 00   
032 00 00 00 00 00 00 00 00   00 00 00 00 76 fe 
Here is appMiscCallBack
Here is appMiscCallBack
MemoryCheck add=0x1950a0
Here is appMiscCallBack
#light online=1,offline=0,all=1,commOutage=0
Here is appMiscCallBack
Here is appMiscCallBack
Here is appMiscCallBack
Dev_gpm Write,baudrate=38400,checkBits=n
000 01 03 9c 40 00 3c 6a 5f   
Dev_gpm Read
000 01 03 78 00 00 00 00 00   00 00 00 43 5a d7 cc 42   
016 91 e5 34 00 00 00 00 43   5a 6e ee 43 5a 13 a9 43   
032 11 80 df 00 00 00 00 00   00 00 00 00 00 00 00 00   
048 00 00 00 00 00 00 00 42   47 ed c9 00 00 00 00 00   
064 00 00 00 00 00 00 00 00   00 00 00 00 00 00 00 00   
080 00 00 00 00 00 00 00 00   00 00 00 00 00 00 00 00   
096 00 00 00 00 00 00 00 00   00 00 00 00 00 00 00 00   
112 00 00 00 00 00 00 00 00   00 00 00 f2 a7 
Here is appMiscCallBack
MemoryCheck add=0x1950a0
Here is appMiscCallBack
Here is appMiscCallBack
Here is appMiscCallBack
Here is appMiscCallBack
Here is appMiscCallBack
MemoryCheck add=0x1950a0
Here is appMiscCallBack
Here is appMiscCallBack
Here is appMiscCallBack
Here is appMiscCallBack
Here is appMiscCallBack
MemoryCheck add=0x1950a0
Here is appMiscCallBack
Here is appMiscCallBack
Here is appMiscCallBack
Here is appMiscCallBack
Here is appMiscCallBack
MemoryCheck add=0x1950a0
Here is appMiscCallBack
Here is appMiscCallBack
Here is appMiscCallBack
Here is appMiscCallBack
Here is appMiscCallBack
MemoryCheck add=0x1950a0
Here is appMiscCallBack
Dev_gpm Write,baudrate=38400,checkBits=n
000 01 03 9c 40 00 3c 6a 5f   
Dev_gpm Read
000 01 03 78 00 00 00 00 00   00 00 00 43 59 f6 ad 42   
016 91 4f 1d 00 00 00 00 43   59 81 53 43 59 25 1b 43   
032 10 e2 24 00 00 00 00 00   00 00 00 00 00 00 00 00   
048 00 00 00 00 00 00 00 42   47 f1 bc 00 00 00 00 00   
064 00 00 00 00 00 00 00 00   00 00 00 00 00 00 00 00   
080 00 00 00 00 00 00 00 00   00 00 00 00 00 00 00 00   
096 00 00 00 00 00 00 00 00   00 00 00 00 00 00 00 00   
112 00 00 00 00 00 00 00 00   00 00 00 0b 51 
Here is appMiscCallBack
Here is appMiscCallBack
aAppGuiWrite to stm32
000 fd 00 07 04 e1 07 07 1c   0e 16 75 07 
Here is appMiscCallBack
Here is appMiscCallBack
MemoryCheck add=0x1950a0
Here is appMiscCallBack
Here is appMiscCallBack
#light online=1,offline=0,all=1,commOutage=0
Here is appMiscCallBack
Here is appMiscCallBack
Here is appMiscCallBack
MemoryCheck add=0x1950a0
Here is appMiscCallBack
Here is appMiscCallBack
Here is appMiscCallBack
Here is appMiscCallBack
Here is appMiscCallBack
MemoryCheck add=0x1950a0
Here is appMiscCallBack
Here is appMiscCallBack
Here is appMiscCallBack
Here is appMiscCallBack
Here is appMiscCallBack
MemoryCheck add=0x1950a0
Here is appMiscCallBack
Here is appMiscCallBack
Here is appMiscCallBack
Dev_gpm Write,baudrate=38400,checkBits=n
000 01 03 9c 40 00 3c 6a 5f   
Dev_gpm Read
000 01 03 78 00 00 00 00 00   00 00 00 43 59 66 f4 42   
016 90 ef 4d 00 00 00 00 43   59 03 91 43 58 a7 b3 43   
032 10 8e 6c 00 00 00 00 00   00 00 00 00 00 00 00 00   
048 00 00 00 00 00 00 00 42   47 da e9 00 00 00 00 00   
064 00 00 00 00 00 00 00 00   00 00 00 00 00 00 00 00   
080 00 00 00 00 00 00 00 00   00 00 00 00 00 00 00 00   
096 00 00 00 00 00 00 00 00   00 00 00 00 00 00 00 00   
112 00 00 00 00 00 00 00 00   00 00 00 6d 16 
Here is appMiscCallBack
Here is appMiscCallBack
MemoryCheck add=0x1950a0
